(1572634585.307402) can0 088#DF0E041BA000FFFF
(1572634585.309404) can0 028#1000060000000000
(1572634585.310415) can0 0C8#0000000000000000
(1572634585.311413) can0 108#0000000000000000
(1572634585.312422) can0 168#000003E400000000
(1572634585.313389) can0 1D8#10000000CA057E78
(1572634585.314387) can0 248#00007BE1803D2E00
(1572634585.315352) can0 388#8000C080001BA47F
(1572634585.316324) can0 128#C000000000003F3F
(1572634585.317432) can0 0A8#78F09105BF3E0000
(1572634585.318385) can0 268#A30800000C030800
(1572634585.325275) can0 048#FE0000003DFE03FF
(1572634585.326295) can0 0C8#0000000000000000
(1572634585.327250) can0 068#FC000031BCD44204
(1572634585.328221) can0 088#DF0F041BB000FFFF
(1572634585.329182) can0 228#10A50181001BA47F
(1572634585.330113) can0 2E8#98000000611BA47F
(1572634585.331091) can0 398#3427101800000000
(1572634585.332064) can0 50B#0C1200000B000000
(1572634585.333304) can0 1C8#000002081F022011
(1572634585.336295) can0 1A8#001136800E750000
(1572634585.340374) can0 2C8#CB00000000007F7F
(1572634585.341381) can0 0C8#0000000000000000
(1572634585.345390) can0 308#F000000000050000
(1572634585.347386) can0 088#DF11041BD000FFFF
(1572634585.348985) can0 208#0002000000000000
(1572634585.357359) can0 028#1000060000000000
(1572634585.358339) can0 0C8#0000000000000000
(1572634585.359338) can0 108#0000000000000000
(1572634585.360337) can0 168#000003E400000000
(1572634585.361312) can0 188#200000001BA47F00
(1572634585.362292) can0 1D8#10000000CA057E79
(1572634585.363254) can0 348#4810000042000000
(1572634585.364229) can0 388#8000C080001BA47F
(1572634585.365188) can0 3C8#8029C61000000000
(1572634585.366802) can0 228#10A50181001BA47F
(1572634585.367769) can0 088#DF12041BE000FFFF
(1572634585.368732) can0 0A8#78F09105BF3E0000
(1572634585.369680) can0 268#A30800000C030800
(1572634585.370646) can0 2A8#C000000001287000
(1572634585.371697) can0 3B8#8000000000000000
(1572634585.372665) can0 448#0000FF0000000000
(1572634585.373655) can0 0C8#0000000000000000
(1572634585.374646) can0 248#00007BE1803D2E00
(1572634585.376333) can0 068#FC000031BCD54204
(1572634585.377301) can0 1A8#001136800E750000
(1572634585.378260) can0 368#DDC8D72200000000
(1572634585.379227) can0 398#3427101800000000
(1572634585.384940) can0 048#FE0000003DFE03FF
(1572634585.387402) can0 088#DF04041B0000FFFF
(1572634585.389401) can0 0C8#0000000000000000
(1572634585.390384) can0 128#C000000000003F3F
(1572634585.395556) can0 308#F000000000050000
(1572634585.396550) can0 400#1E00010000000008
(1572634585.397489) can0 405#023DFF003102C3A6
(1572634585.398478) can0 1C8#000002081F022011
(1572634585.400457) can0 2C8#CB00000000007F7F
(1572634585.404020) can0 208#0002000000000000
(1572634585.405236) can0 028#1000060000000000
(1572634585.406243) can0 0C8#0000000000000000
(1572634585.407242) can0 108#0000000000000000
(1572634585.408208) can0 088#DF06041B2000FFFF
(1572634585.409207) can0 168#000003E400000000
(1572634585.410174) can0 1D8#10000000CA057E79
(1572634585.411116) can0 228#10E50181001BA47F
(1572634585.412064) can0 2E8#98000000611BA47F
(1572634585.413034) can0 388#8000C080001BA47F
(1572634585.416322) can0 1A8#001136800E750000
(1572634585.417457) can0 0A8#78F09105BF3E0000
(1572634585.418414) can0 268#A30800000C030800
(1572634585.421248) can0 0C8#0000000000000000
(1572634585.426313) can0 068#FC000031BCD54204
(1572634585.427279) can0 398#3427101800000000
(1572634585.428247) can0 088#DF07041B3000FFFF
(1572634585.433180) can0 248#00007BE1803D2E00
(1572634585.434154) can0 50C#0F1200000C000000
(1572634585.437271) can0 0C8#0000000000000000
(1572634585.444980) can0 048#FE0000003DFE03FF
(1572634585.445959) can0 308#F000000000050000
(1572634585.446910) can0 228#10A50181001BA47F
(1572634585.447875) can0 088#DF08041B4000FFFF
(1572634585.448867) can0 328#E000000000000000
(1572634585.451331) can0 368#DDC8D72200000000
(1572634585.453499) can0 028#1000060000000000
(1572634585.454505) can0 0C8#0000000000000000
(1572634585.455504) can0 108#0000000000000000
(1572634585.456497) can0 168#000003E500000000
(1572634585.457455) can0 188#600000001BA47F00
(1572634585.458442) can0 1A8#001136800E750000
(1572634585.459382) can0 1D8#10000000CA057E7A
(1572634585.460404) can0 208#0002000000000000
(1572634585.461387) can0 2C8#CB00000000007F7F
(1572634585.462363) can0 348#4810000042000000
(1572634585.463344) can0 1C8#000002081F022011
(1572634585.464320) can0 388#8000C080001BA47F
(1572634585.465318) can0 3B8#8000000000000000
(1572634585.466301) can0 128#C000000000003F3F
(1572634585.467259) can0 3C8#8029C61000000000
(1572634585.468226) can0 088#DF0A041B6000FFFF
(1572634585.469177) can0 0A8#78F09105BF3E0000
(1572634585.470184) can0 0C8#0000000000000000
(1572634585.471143) can0 268#A30800000C030800
(1572634585.472115) can0 2A8#C000000001287000
(1572634585.473110) can0 448#0000FF0000000000
(1572634585.474101) can0 488#80FFFFFFFFFFFFFF
(1572634585.476333) can0 068#FC000031BCD54204
(1572634585.477300) can0 398#3427101800000000
(1572634585.478292) can0 401#1600000000000000
(1572634585.479283) can0 402#1E00010000000008
(1572634585.480236) can0 404#023DFF003102C3A6
(1572634585.485445) can0 0C8#0000000000000000
(1572634585.486737) can0 228#10A50181001BA47F
(1572634585.487703) can0 088#DF0B041B7000FFFF
(1572634585.488654) can0 2E8#D8000000611BA47F
(1572634585.493341) can0 248#00007BE1803D2E00
(1572634585.495616) can0 308#F000000000050000
(1572634585.496583) can0 1A8#001136800E750000
(1572634585.501558) can0 028#1000060000000000
(1572634585.502566) can0 0C8#0000000000000000
(1572634585.503564) can0 108#0000000000000000
(1572634585.504573) can0 168#000003E400000000
(1572634585.505563) can0 048#FF8000003DFE03FF
(1572634585.506521) can0 1D8#10000000CA057E7A
(1572634585.507504) can0 088#DF0C041B8000FFFF
(1572634585.508480) can0 388#8000C080001BA47F
(1572634585.513996) can0 208#0002000000000000
(1572634585.517343) can0 0C8#0000000000000000
(1572634585.518294) can0 0A8#78F09105BF3E0000
(1572634585.519253) can0 268#A30800000C030800
(1572634585.520445) can0 2C8#CB00000000007F7F
(1572634585.526311) can0 068#FC000031BCD54204
(1572634585.527260) can0 228#10A50181001BA47F
(1572634585.528227) can0 088#DF0E041BA000FFFF
(1572634585.529211) can0 1C8#000002081F022011
(1572634585.530170) can0 368#DDC8D72200000000
(1572634585.531137) can0 398#3427101800000000
(1572634585.533509) can0 0C8#0000000000000000
(1572634585.536345) can0 1A8#001136800E750000
(1572634585.540336) can0 128#C000000000003F3F
(1572634585.541310) can0 50F#111200000C000000
(1572634585.545762) can0 308#F000000000050000
(1572634585.547422) can0 088#DF0F041BB000FFFF
(1572634585.548973) can0 3B8#8000000000000000
(1572634585.549980) can0 028#1000060000000000
(1572634585.550996) can0 0C8#0000000000000000
(1572634585.552011) can0 108#0000000000000000
(1572634585.553014) can0 168#000003E400000000
(1572634585.553998) can0 188#200000001BA47F00
(1572634585.554961) can0 1D8#10000000CA057E7B
(1572634585.555952) can0 248#00007BE1803D2E00
(1572634585.556912) can0 348#4810000042000000
(1572634585.557884) can0 388#8000C080001BA47F
(1572634585.558854) can0 3C8#8029C61000000000
(1572634585.559853) can0 448#0000FF0000000000
(1572634585.565399) can0 0C8#0000000000000000
(1572634585.566373) can0 048#FE0000003DFE03FF
(1572634585.567327) can0 228#10A50181001BA47F
(1572634585.568273) can0 088#DF10041BC000FFFF
(1572634585.569213) can0 0A8#78F09105BF3E0000
(1572634585.570226) can0 208#0002000000000000
(1572634585.571183) can0 268#A30800000C030800
(1572634585.572151) can0 2A8#C000000001287000
(1572634585.573108) can0 2E8#98000000611BA47F
(1572634585.576324) can0 068#FC000031BCD54204
(1572634585.577292) can0 1A8#001136800E750000
(1572634585.578258) can0 398#3427101800000000
(1572634585.580418) can0 2C8#CB00000000007F7F
(1572634585.581467) can0 0C8#0000000000000000
(1572634585.587411) can0 088#DF12041BE000FFFF
(1572634585.593430) can0 1C8#000002081F022011
(1572634585.595485) can0 308#F000000000050000
(1572634585.596475) can0 328#E000000000000000
(1572634585.597482) can0 028#1000060000000000
(1572634585.598490) can0 0C8#0000000000000000
(1572634585.599489) can0 108#0000000000000000
(1572634585.600488) can0 168#000003E400000000
(1572634585.601455) can0 1D8#10000000CA057E7B
(1572634585.602399) can0 368#DD88D72200000000
(1572634585.603373) can0 388#8000C080001BA47F
(1572634585.606697) can0 228#10A50181001BA47F
(1572634585.607658) can0 088#DF04041B0000FFFF
(1572634585.613290) can0 0C8#0000000000000000
(1572634585.614280) can0 248#00007BE1803D2E00
(1572634585.615393) can0 128#C000000000003F3F
(1572634585.616391) can0 1A8#001136800E750000
(1572634585.617431) can0 0A8#78F09105BF3E0000
(1572634585.618389) can0 268#A30800000C030800
(1572634585.623995) can0 208#0002000000000000
(1572634585.625405) can0 048#FE0000003DFE03FF
(1572634585.626356) can0 068#FC000031BCD54204
(1572634585.627323) can0 398#3427101800000000
(1572634585.628297) can0 088#DF05041B1000FFFF
(1572634585.629450) can0 0C8#0000000000000000
(1572634585.638954) can0 3B8#8000000000000000
(1572634585.639952) can0 448#0000FF0000000000
(1572634585.640934) can0 2C8#CB00000000007F7F
(1572634585.645375) can0 028#1000060000000000
(1572634585.646378) can0 0C8#0000000000000000
(1572634585.647368) can0 108#0000000000000000
(1572634585.648337) can0 088#DF07041B3000FFFF
(1572634585.649338) can0 168#000003E400000000
(1572634585.650296) can0 188#600000001BA47F00
(1572634585.651260) can0 1D8#10000000CA057E7C
(1572634585.652223) can0 228#10A50181001BA47F
(1572634585.653157) can0 2E8#98000000611BA47F
(1572634585.654138) can0 308#F000000000050000
(1572634585.655112) can0 348#4810000042000000
(1572634585.656086) can0 388#8000C080001BA47F
(1572634585.657053) can0 1A8#001136800E750000
(1572634585.658013) can0 3C8#8029C61000000000
(1572634585.658995) can0 1C8#000002081F022011
(1572634585.660003) can0 400#1F02000000000000
(1572634585.660994) can0 405#2400000000000000
(1572634585.662007) can0 0C8#0000000000000000
(1572634585.662952) can0 511#1312000011000012
(1572634585.667425) can0 088#DF08041B4000FFFF
(1572634585.668376) can0 0A8#78F09105BF3E0000
(1572634585.669335) can0 268#A30800000C030800
(1572634585.670300) can0 2A8#C000000001287000
(1572634585.673593) can0 248#00007BE1803D2E00
(1572634585.676335) can0 068#FC000031BCD54204
(1572634585.677295) can0 368#DDC8D72200000000
(1572634585.678301) can0 0C8#0000000000000000
(1572634585.679325) can0 208#0002000000000000
(1572634585.680291) can0 398#3427101800000000
(1572634585.685678) can0 048#FE0000003DFE03FF
(1572634585.686658) can0 228#10A50181001BA47F
(1572634585.687627) can0 088#DF09041B5000FFFF
(1572634585.690369) can0 128#C000000000003F3F
(1572634585.693436) can0 028#1000060000000000
(1572634585.694439) can0 0C8#0000000000000000
(1572634585.695438) can0 108#0000000000000000
(1572634585.696437) can0 168#000003E400000000
(1572634585.697404) can0 1A8#001136800E750000
(1572634585.698379) can0 1D8#10000000CA057E7C
(1572634585.699362) can0 308#F000000000050000
(1572634585.700338) can0 388#8000C080001BA47F
(1572634585.701322) can0 2C8#CB00000000007F7F
(1572634585.707464) can0 088#DF0B041B7000FFFF
(1572634585.709408) can0 0C8#0000000000000000
(1572634585.717418) can0 0A8#78F09105BF3E0000
(1572634585.718376) can0 268#A30800000C030800
(1572634585.723617) can0 1C8#000002081F022011
(1572634585.725395) can0 0C8#0000000000000000
(1572634585.726377) can0 068#FC000031BCD54204
(1572634585.727321) can0 228#10E50181001BA47F
(1572634585.728302) can0 088#DF0C041B8000FFFF
(1572634585.729244) can0 2E8#98000000611BA47F
(1572634585.730212) can0 398#3427101800000000
(1572634585.731211) can0 3B8#8000000000000000
(1572634585.732181) can0 401#170029000000A000
(1572634585.733177) can0 402#1F02000000000000
(1572634585.734167) can0 248#00007BE1803D2E00
(1572634585.735191) can0 208#0002000000000000
(1572634585.736190) can0 404#2400000000000000
(1572634585.737158) can0 1A8#001136800E750000
(1572634585.738157) can0 448#0000FF0000000000
(1572634585.741435) can0 028#1000060000000000
(1572634585.742446) can0 0C8#0000000000000000
(1572634585.743442) can0 108#0000000000000000
(1572634585.744441) can0 168#000003E400000000
(1572634585.745424) can0 048#FE0000003DFE03FF
(1572634585.746399) can0 188#200000001BA47F00
(1572634585.747374) can0 1D8#10000000CA057E7D
(1572634585.748348) can0 088#DF0D041B9000FFFF
(1572634585.749330) can0 308#F000000000050000
(1572634585.750321) can0 328#E000000000000000
(1572634585.751296) can0 348#4810000042000000
(1572634585.752260) can0 368#DDC8D72200000000
(1572634585.753222) can0 378#0000000000132E32
(1572634585.754197) can0 388#8000C080001BA47F
(1572634585.755156) can0 3C8#8029C61000000000
(1572634585.756147) can0 488#80FFFFFFFFFFFFFF
(1572634585.757330) can0 0C8#0000000000000000
(1572634585.760402) can0 2C8#CB00000000007F7F
(1572634585.765356) can0 128#C000000000003F3F
(1572634585.766616) can0 228#10A50181001BA47F
(1572634585.767598) can0 088#DF0F041BB000FFFF
(1572634585.768551) can0 0A8#78F09105BF3E0000
(1572634585.769508) can0 268#A30800000C030800
(1572634585.770476) can0 2A8#C000000001287000
(1572634585.773463) can0 0C8#0000000000000000
(1572634585.776364) can0 068#FC000031BCD54204
(1572634585.777332) can0 1A8#001136800E750000
(1572634585.778298) can0 398#3427101800000000
(1572634585.779266) can0 513#011200001300000D
(1572634585.787428) can0 088#DF10041BC000FFFF
(1572634585.788683) can0 1C8#000002081F022011
(1572634585.789690) can0 028#1000060000000000
(1572634585.790697) can0 0C8#0000000000000000
(1572634585.791699) can0 108#0000000000000000
(1572634585.792694) can0 168#000003E400000000
(1572634585.793668) can0 1D8#10000000CA057E7D
(1572634585.794692) can0 208#0002000000000000
(1572634585.795684) can0 248#00007BE1803D2E00
(1572634585.796667) can0 308#F000000000050000
(1572634585.797642) can0 388#8000C080001BA47F
(1572634585.805387) can0 0C8#0000000000000000
(1572634585.806384) can0 048#FF8000003DFE03FF
(1572634585.807337) can0 228#10A50181001BA47F
(1572634585.808302) can0 088#DF11041BD000FFFF
(1572634585.809245) can0 2E8#98000000611BA47F
(1572634585.816375) can0 1A8#001136800E750000
(1572634585.817461) can0 0A8#78F09105BF3E0000
(1572634585.818419) can0 268#A30800000C030800
(1572634585.819418) can0 3B8#8000000000000000
(1572634585.820419) can0 448#0000FF0000000000
(1572634585.821424) can0 0C8#0000000000000000
(1572634585.822411) can0 2C8#CB00000000007F7F
(1572634585.826376) can0 068#FC000031BCD54204
(1572634585.827334) can0 368#DDC8D72200000000
(1572634585.828309) can0 088#DF04041B0000FFFF
(1572634585.829277) can0 398#3427101800000000
(1572634585.837437) can0 028#1000060000000000
(1572634585.838442) can0 0C8#0000000000000000
(1572634585.839442) can0 108#0000000000000000
(1572634585.840424) can0 128#C000000000003F3F
(1572634585.841423) can0 168#000003E400000000
(1572634585.842386) can0 188#600000001BA47F00
(1572634585.843357) can0 1D8#10000000CA057E7D
(1572634585.844380) can0 208#0002000000000000
(1572634585.845356) can0 348#4810000042000000
(1572634585.846338) can0 308#F000000000050000
(1572634585.847288) can0 228#10A50181001BA47F
(1572634585.848264) can0 088#DF05041B1000FFFF
(1572634585.849241) can0 388#8000C080001BA47F
(1572634585.850199) can0 3C8#8029C61000000000
(1572634585.853631) can0 0C8#0000000000000000
(1572634585.854613) can0 1C8#000002081F022011
(1572634585.855605) can0 248#00007BE1803D2E00
(1572634585.856572) can0 1A8#001136800E750000
(1572634585.865167) can0 048#FE0000003DFE03FF
(1572634585.867460) can0 088#DF06041B2000FFFF
(1572634585.868411) can0 0A8#78F09105BF3E0000
(1572634585.869370) can0 268#A30800000C030800
(1572634585.870379) can0 0C8#0000000000000000
(1572634585.871355) can0 2A8#C000000001287000
(1572634585.876410) can0 068#FC000031BCD54204
(1572634585.877377) can0 398#3427101800000000
(1572634585.880415) can0 2C8#CB00000000007F7F
(1572634585.885431) can0 028#1000060000000000
(1572634585.886438) can0 0C8#0000000000000000
(1572634585.887437) can0 108#0000000000000000
(1572634585.888403) can0 088#DF08041B4000FFFF
(1572634585.889419) can0 168#000003E400000000
(1572634585.890383) can0 1D8#10000000CA057E7E
(1572634585.891333) can0 228#10A50181001BA47F
(1572634585.892262) can0 2E8#98000000611BA47F
(1572634585.893236) can0 388#8000C080001BA47F
(1572634585.894211) can0 501#031200001300000D
(1572634585.896065) can0 308#F000000000050000
(1572634585.897029) can0 1A8#001136800E750000
(1572634585.898018) can0 328#E000000000000000
(1572634585.899036) can0 208#0002000000000000
(1572634585.900069) can0 400#2000000000000000
(1572634585.901048) can0 405#2500000000000000
(1572634585.902060) can0 0C8#0000000000000000
(1572634585.903017) can0 368#DDC8D72200000000
(1572634585.907479) can0 088#DF09041B5000FFFF
(1572634585.908988) can0 3B8#8000000000000000
(1572634585.909986) can0 448#0000FF0000000000
(1572634585.913775) can0 248#00007BE1803D2E00
(1572634585.915355) can0 128#C000000000003F3F
(1572634585.917260) can0 0C8#0000000000000000
(1572634585.918210) can0 0A8#78F09105BF3E0000
(1572634585.919177) can0 1C8#800002081F022011
(1572634585.920136) can0 268#A30800000C030800
(1572634585.925185) can0 048#FE0000003DFE03FF
(1572634585.926399) can0 068#FC000031BCD54204
(1572634585.927350) can0 228#10A50181001BA47F
(1572634585.928318) can0 088#DF0A041B6000FFFF
(1572634585.929285) can0 398#3427101800000000
(1572634585.933509) can0 028#1000060000000000
(1572634585.934515) can0 0C8#0000000000000000
(1572634585.935514) can0 108#0000000000000000
(1572634585.936513) can0 168#000003E400000000
(1572634585.937487) can0 188#200000001BA47F00
(1572634585.938454) can0 1A8#001136800E750000
(1572634585.939421) can0 1D8#10000000CA057E7E
(1572634585.940396) can0 348#4810000042000000
(1572634585.941380) can0 2C8#CB00000000007F7F
(1572634585.942359) can0 388#8000C080001BA47F
(1572634585.943315) can0 3C8#8029C61000000000
(1572634585.945426) can0 308#F000000000050000
(1572634585.947466) can0 088#DF0C041B8000FFFF
(1572634585.949440) can0 0C8#0000000000000000
(1572634585.954016) can0 208#0002000000000000
(1572634585.965421) can0 0C8#0000000000000000
(1572634585.966575) can0 228#10A50181001BA47F
(1572634585.967548) can0 088#DF0D041B9000FFFF
(1572634585.968501) can0 0A8#78F09105BF3E0000
(1572634585.969459) can0 268#A30800000C030800
(1572634585.970426) can0 2A8#C000000001287000
(1572634585.971377) can0 2E8#D8000000611BA47F
(1572634585.973943) can0 248#00007BE1803D2E00
(1572634585.976397) can0 068#FC000031BCD54204
(1572634585.977359) can0 1A8#001136800E750000
(1572634585.978319) can0 368#DDC8D72200000000
(1572634585.979285) can0 398#3427101800000000
(1572634585.980285) can0 401#1800000000180000
(1572634585.981293) can0 402#2000000000000000
(1572634585.982306) can0 028#1000060000000000
(1572634585.983308) can0 0C8#0000000000000000
(1572634585.984306) can0 108#0000000000000000
(1572634585.985305) can0 168#000003E400000000
(1572634585.986289) can0 048#FE0000003DFE03FF
(1572634585.987272) can0 1C8#000002081F022011
(1572634585.988239) can0 088#DF0E041BA000FFFF
(1572634585.989214) can0 1D8#10000000CA057E7F
(1572634585.990188) can0 388#8000C080001BA47F
(1572634585.991171) can0 128#C000000000003F3F
(1572634585.992182) can0 404#2500000000000000
(1572634585.995963) can0 308#F000000000050000
(1572634585.997465) can0 0C8#0000000000000000
(1572634585.998985) can0 3B8#8000000000000000
(1572634585.999983) can0 448#0000FF0000000000
(1572634586.000966) can0 2C8#CB00000000007F7F
(1572634586.001952) can0 503#041200001300000D
(1572634586.006525) can0 228#10E50181001BA47F
(1572634586.007497) can0 088#DF10041BC000FFFF
(1572634586.009011) can0 208#0002000000000000
(1572634586.013427) can0 0C8#0000000000000000
(1572634586.016418) can0 1A8#001136800E750000
(1572634586.017465) can0 0A8#78F09105BF3E0000
(1572634586.018424) can0 268#A30800000C030800
(1572634586.026390) can0 068#FC000031BCD54204
(1572634586.027353) can0 398#3427101800000000
(1572634586.028319) can0 088#DF11041BD000FFFF
(1572634586.029310) can0 488#80FFFFFFFFFFFFFF
(1572634586.030318) can0 028#1000060000000000
(1572634586.031325) can0 0C8#0000000000000000
(1572634586.032328) can0 108#0000000000000000
(1572634586.033324) can0 168#000003E400000000
(1572634586.034298) can0 188#200000001BA47F00
(1572634586.035274) can0 1D8#10000000CA057E7F
(1572634586.036266) can0 248#00007BE1803D2E00
(1572634586.037240) can0 348#4810000042000000
(1572634586.038215) can0 388#8000C080001BA47F
(1572634586.039175) can0 3C8#8029C61000000000
(1572634586.045387) can0 0C8#0000000000000000
(1572634586.046365) can0 048#FE0000003DFE03FF
(1572634586.047315) can0 228#10A50181001BA47F
(1572634586.048282) can0 088#DF12041BE000FFFF
(1572634586.049265) can0 1C8#000002081F022011
(1572634586.050208) can0 2E8#98000000611BA47F
(1572634586.051192) can0 308#F000000000050000
(1572634586.052185) can0 328#E000000000000000
(1572634586.053143) can0 368#DDC8D72200000000
(1572634586.056431) can0 1A8#001136800E750000
(1572634586.060421) can0 2C8#CB00000000007F7F
(1572634586.061452) can0 0C8#0000000000000000
(1572634586.064039) can0 208#0002000000000000
(1572634586.065419) can0 128#C000000000003F3F
(1572634586.067480) can0 088#DF05041B1000FFFF
(1572634586.068419) can0 0A8#78F09105BF3E0000
(1572634586.069378) can0 268#A30800000C030800
(1572634586.070357) can0 2A8#C000000001287000
(1572634586.076434) can0 068#FC000031BCD54204
(1572634586.077410) can0 028#1000060000000000
(1572634586.078428) can0 0C8#0000000000000000
(1572634586.079422) can0 108#0000000000000000
(1572634586.080425) can0 168#000003E400000000
(1572634586.081385) can0 1D8#10000000CA057E80
(1572634586.082367) can0 388#8000C080001BA47F
(1572634586.083330) can0 398#3427101800000000
(1572634586.086557) can0 228#10A50181001BA47F
(1572634586.087504) can0 088#DF06041B2000FFFF
(1572634586.089001) can0 3B8#8000000000000000
(1572634586.090012) can0 448#0000FF0000000000
(1572634586.093322) can0 0C8#0000000000000000
(1572634586.094324) can0 248#00007BE1803D2E00
(1572634586.095883) can0 308#F000000000050000
(1572634586.096845) can0 1A8#001136800E750000
(1572634586.105631) can0 048#FF8000003DFE03FF
(1572634586.107468) can0 088#DF07041B3000FFFF
(1572634586.109451) can0 0C8#0000000000000000
(1572634586.111553) can0 504#0502002004000000
(1572634586.114147) can0 1C8#000002081F022011
(1572634586.115153) can0 4D8#0000000000000000
(1572634586.117456) can0 0A8#78F09105BF3E0000
(1572634586.118415) can0 268#A30800000C030800
(1572634586.119439) can0 208#0002000000000000
(1572634586.120477) can0 2C8#CB00000000007F7F
(1572634586.125413) can0 028#1000060000000000
(1572634586.126419) can0 0C8#0000000000000000
(1572634586.127385) can0 068#FC000031BCD54204
(1572634586.128351) can0 088#DF09041B5000FFFF
(1572634586.129334) can0 108#0000000000000000
(1572634586.130334) can0 168#000003E400000000
(1572634586.131293) can0 188#600000001BA47F00
(1572634586.132262) can0 1D8#10000000CA057E80
(1572634586.133211) can0 228#10A50181001BA47F
(1572634586.134152) can0 2E8#98000000611BA47F
(1572634586.135127) can0 348#4810000042000000
(1572634586.136086) can0 368#DDC8D72200000000
(1572634586.137053) can0 1A8#001136800E750000
(1572634586.138027) can0 388#8000C080001BA47F
(1572634586.138995) can0 398#3427101800000000
(1572634586.139953) can0 3C8#8029C61000000000
(1572634586.140936) can0 128#C000000000003F3F
(1572634586.141945) can0 0C8#0000000000000000
(1572634586.145918) can0 308#F000000000050000
(1572634586.146913) can0 400#2100000000000000
(1572634586.147878) can0 088#DF0A041B6000FFFF
(1572634586.148828) can0 405#0164CA057E804204
(1572634586.154237) can0 248#00007BE1803D2E00
(1572634586.157382) can0 0C8#0000000000000000
(1572634586.165639) can0 048#FE0000003DFE03FF
(1572634586.166589) can0 228#10A50181001BA47F
(1572634586.167556) can0 088#DF0B041B7000FFFF
(1572634586.168507) can0 0A8#78F09105BF3E0000
(1572634586.169466) can0 268#A30800000C030800
(1572634586.170433) can0 2A8#C000000001287000
(1572634586.173497) can0 028#1000060000000000
(1572634586.174503) can0 0C8#0000000000000000
(1572634586.175502) can0 108#0000000000000000
(1572634586.176501) can0 168#000003E400000000
(1572634586.177453) can0 068#FC000031BCD54204
(1572634586.178421) can0 1A8#001136800E750000
(1572634586.179404) can0 1C8#000002081F022011
(1572634586.180370) can0 1D8#10000000CA057E81
(1572634586.181392) can0 208#0002000000000000
(1572634586.182377) can0 2C8#CB00000000007F7F
(1572634586.183351) can0 388#8000C080001BA47F
(1572634586.184318) can0 398#3427101800000000
(1572634586.185318) can0 3B8#8000000000000000
(1572634586.186318) can0 448#0000FF0000000000
(1572634586.187508) can0 088#DF0D041B9000FFFF
(1572634586.189467) can0 0C8#0000000000000000
(1572634586.195861) can0 308#F000000000050000
(1572634586.196849) can0 328#E000000000000000
(1572634586.201443) can0 368#DD88D72200000000
(1572634586.205603) can0 0C8#0000000000000000
(1572634586.206553) can0 228#10A50181001BA47F
(1572634586.207519) can0 088#DF0E041BA000FFFF
(1572634586.208463) can0 2E8#98000000611BA47F
(1572634586.214291) can0 248#00007BE1803D2E00
(1572634586.215394) can0 128#C000000000003F3F
(1572634586.216456) can0 1A8#001136800E750000
(1572634586.217503) can0 0A8#78F09105BF3E0000
(1572634586.218462) can0 268#A30800000C030800
(1572634586.221446) can0 028#1000060000000000
(1572634586.222455) can0 0C8#0000000000000000
(1572634586.223451) can0 108#0000000000000000
(1572634586.224449) can0 168#000003E400000000
(1572634586.225425) can0 188#200000001BA47F00
(1572634586.226407) can0 048#FE0000003DFE03FF
(1572634586.227360) can0 068#FC000031BCD54204
(1572634586.228343) can0 088#DF0F041BB000FFFF
(1572634586.229310) can0 1D8#10000000CA057E81
(1572634586.230332) can0 208#0002000000000000
(1572634586.231307) can0 348#4810000042000000
(1572634586.232285) can0 388#8000C080001BA47F
(1572634586.233250) can0 398#3427101800000000
(1572634586.234208) can0 3C8#8029C61000000000
(1572634586.235192) can0 401#1900FF000F020079
(1572634586.236182) can0 402#2100000000000000
(1572634586.237134) can0 404#0164CA057E804204
(1572634586.238140) can0 0C8#0000000000000000
(1572634586.239115) can0 505#0802002005000000
(1572634586.240497) can0 2C8#CB00000000007F7F
(1572634586.244303) can0 1C8#000002081F022011
(1572634586.246178) can0 308#F000000000050000
(1572634586.247128) can0 228#10A50181001BA47F
(1572634586.248095) can0 088#DF11041BD000FFFF
(1572634586.253328) can0 0C8#0000000000000000
(1572634586.256464) can0 1A8#001136800E750000
(1572634586.267480) can0 088#DF12041BE000FFFF
(1572634586.268431) can0 0A8#78F09105BF3E0000
(1572634586.269437) can0 028#1000060000000000
(1572634586.270443) can0 0C8#0000000000000000
(1572634586.271441) can0 108#0000000000000000
(1572634586.272443) can0 168#000003E400000000
(1572634586.273413) can0 1D8#10000000CA057E82
(1572634586.274372) can0 268#A30800000C030800
(1572634586.275364) can0 248#00007BE1803D2E00
(1572634586.276331) can0 2A8#C000000001287000
(1572634586.277274) can0 068#FC004031BCD54204
(1572634586.278233) can0 368#DDC8D72200000000
(1572634586.279207) can0 388#8000C080001BA47F
(1572634586.280175) can0 398#3427101800000000
(1572634586.281173) can0 3B8#8000000000000000
(1572634586.282175) can0 448#0000FF0000000000
(1572634586.284035) can0 208#0002000000000000
(1572634586.285530) can0 0C8#0000000000000000
(1572634586.286514) can0 048#FE0000003DFE03FF
(1572634586.287464) can0 228#10A50181001BA47F
(1572634586.288439) can0 088#DF04041B0000FFFF
(1572634586.289382) can0 2E8#98000000611BA47F
(1572634586.290365) can0 128#C000000000003F3F
(1572634586.295926) can0 308#F000000000050000
(1572634586.296892) can0 1A8#001136800E750000
(1572634586.300435) can0 2C8#CB00000000007F7F
(1572634586.301466) can0 0C8#0000000000000000
(1572634586.306507) can0 488#80FFFFFFFFFFFFFF
(1572634586.307505) can0 088#DF06041B2000FFFF
(1572634586.309394) can0 1C8#000002081F022011
(1572634586.317439) can0 028#1000060000000000
(1572634586.318385) can0 0A8#78F09105BF3E0000
(1572634586.319391) can0 0C8#0000000000000000
(1572634586.320390) can0 108#0000000000000000
(1572634586.321389) can0 168#000003E400000000
(1572634586.322367) can0 188#200000001BA47F00
(1572634586.323338) can0 1D8#10000000CA057E82
(1572634586.324298) can0 268#A30800000C030800
(1572634586.325273) can0 348#4810000042000000
(1572634586.326248) can0 388#8000C080001BA47F
(1572634586.327191) can0 068#FC004031BCD54204
(1572634586.328166) can0 088#DF07041B3000FFFE
(1572634586.329108) can0 228#10E50181001BA47F
(1572634586.330076) can0 398#3427101800000000
(1572634586.331034) can0 3C8#8029C61000000000
(1572634586.333510) can0 0C8#0000000000000000
(1572634586.334498) can0 248#00007BE1803D2E00
(1572634586.336482) can0 1A8#001136800E750000
(1572634586.339017) can0 208#0002000000000000
(1572634586.344407) can0 508#0B12000008000000
(1572634586.345546) can0 048#FE0000003DFE03FF
(1572634586.346529) can0 308#F000000000050000
(1572634586.347520) can0 328#E000000000000000
(1572634586.348496) can0 088#DF08041B4000FFFE
(1572634586.349503) can0 0C8#0000000000000000
(1572634586.351527) can0 368#DDC8D72200000000
(1572634586.358983) can0 3B8#8000000000000000
(1572634586.359984) can0 448#0000FF0000000000
(1572634586.360965) can0 2C8#CB00000000007F7F
(1572634586.365365) can0 128#C000000000003F3F
(1572634586.366370) can0 028#1000060000000000
(1572634586.367377) can0 0C8#0000000000000000
(1572634586.368343) can0 088#DF0A041B6000FFFE
(1572634586.369295) can0 0A8#78F09105BF3E0000
(1572634586.370294) can0 108#0000000000000000
(1572634586.371293) can0 168#000003E400000000
(1572634586.372272) can0 1D8#10000000CA057E83
(1572634586.373217) can0 228#10A50181001BA47F
(1572634586.374176) can0 268#A30800000C030800
(1572634586.375160) can0 1C8#000002081F022011
(1572634586.376126) can0 2A8#C000000001287000
(1572634586.377069) can0 068#FC004031BCD54204
(1572634586.378036) can0 1A8#001136800E750000
(1572634586.378978) can0 2E8#98000000611BA47F
(1572634586.379953) can0 388#8000C080001BA47F
(1572634586.380921) can0 398#3427101800000000
(1572634586.381931) can0 0C8#0000000000000000
(1572634586.387496) can0 088#DF0B041B7000FFFF
(1572634586.394026) can0 208#0002000000000000
(1572634586.395015) can0 248#00007BE1803D2E00
(1572634586.396008) can0 308#F000000000050000
(1572634586.397004) can0 400#2200000000000000
(1572634586.398015) can0 0C8#0000000000000000
(1572634586.398955) can0 405#023DFF003102C3A6
(1572634586.405496) can0 048#FF8000003DFE03FF
(1572634586.406441) can0 228#10A50181001BA47F
(1572634586.407546) can0 088#DF0C041B8000FFFF
(1572634586.413330) can0 028#1000060000000000
(1572634586.414337) can0 0C8#0000000000000000
(1572634586.415334) can0 108#0000000000000000
(1572634586.416334) can0 168#000003E400000000
(1572634586.417292) can0 188#600000001BA47F00
(1572634586.418244) can0 0A8#78F09105BF3E0000
(1572634586.419211) can0 1A8#001136800E750000
(1572634586.420185) can0 1D8#10000000CA057E83
(1572634586.421145) can0 268#A30800000C030800
(1572634586.422131) can0 2C8#CB00000000007F7F
(1572634586.423101) can0 348#4810000042000000
(1572634586.424076) can0 388#8000C080001BA47F
(1572634586.425036) can0 3C8#8029C61000000000
(1572634586.426484) can0 068#FC004031BCD54204
(1572634586.427443) can0 368#DDC8D72200000000
(1572634586.428409) can0 088#DF0E041BA000FFFF
(1572634586.429377) can0 398#3427101800000000
(1572634586.430384) can0 0C8#0000000000000000
(1572634586.439503) can0 1C8#000002081F022011
(1572634586.440484) can0 128#C000000000003F3F
(1572634586.445430) can0 0C8#0000000000000000
(1572634586.446410) can0 308#F000000000050000
(1572634586.447360) can0 228#10A50181001BA47F
(1572634586.448343) can0 088#DF0F041BB000FFFF
(1572634586.449366) can0 208#0002000000000000
(1572634586.450309) can0 2E8#98000000611BA47F
(1572634586.451308) can0 3B8#8000000000000000
(1572634586.452312) can0 448#0000FF0000000000
(1572634586.453292) can0 50B#0C1200000B000000
(1572634586.454668) can0 248#00007BE1803D2E00
(1572634586.456515) can0 1A8#0011367F0E750000
(1572634586.461456) can0 028#1000060000000000
(1572634586.462463) can0 0C8#0000000000000000
(1572634586.463457) can0 108#0000000000000000
(1572634586.464456) can0 168#000003E400000000
(1572634586.465422) can0 1D8#10000000CA057E84
(1572634586.466406) can0 048#FE0000003DFE03FF
(1572634586.467382) can0 388#8000C080001BA47F
(1572634586.468340) can0 088#DF10041BC000FFFF
(1572634586.469292) can0 0A8#78F09105BF3E0000
(1572634586.470251) can0 268#A30800000C030800
(1572634586.471217) can0 2A8#C000000001287000
(1572634586.476464) can0 068#FC004031BCD54204
(1572634586.477426) can0 398#3427101800000000
(1572634586.478431) can0 0C8#0000000000000000
(1572634586.479383) can0 401#1A01009511FFAA03
(1572634586.480383) can0 402#2200000000000000
(1572634586.481365) can0 2C8#CB00000000007F7F
(1572634586.482321) can0 404#023DFF003102C3A6
(1572634586.486381) can0 228#10A50181001BA47F
(1572634586.487523) can0 088#DF12041BE000FFFF
(1572634586.493502) can0 0C8#0000000000000000
(1572634586.495988) can0 308#F000000000050000
(1572634586.496937) can0 1A8#0011367F0E750000
(1572634586.497929) can0 328#E000000000000000
(1572634586.501489) can0 368#DDC8D72200000000
(1572634586.504025) can0 208#0002000000000000
(1572634586.505008) can0 1C8#000002081F022011
(1572634586.507527) can0 088#DF04041B0000FFFF
(1572634586.509502) can0 028#1000060000000000
(1572634586.510509) can0 0C8#0000000000000000
(1572634586.511509) can0 108#0000000000000000
(1572634586.512508) can0 168#000003E400000000
(1572634586.513483) can0 188#200000001BA47F00
(1572634586.514449) can0 1D8#10000000CA057E84
(1572634586.515433) can0 128#C000000000003F3F
(1572634586.516425) can0 248#00007BE1803D2E00
(1572634586.517399) can0 348#4810000042000000
(1572634586.518350) can0 0A8#78F09105BF3E0000
(1572634586.519308) can0 268#A30800000C030800
(1572634586.520283) can0 388#8000C080001BA47F
(1572634586.521242) can0 3C8#8029C61000000000
(1572634586.525437) can0 0C8#0000000000000000
(1572634586.526414) can0 048#FE0000003DFE03FF
(1572634586.527358) can0 068#FC004031BCD54204
(1572634586.528332) can0 088#DF05041B1000FFFF
(1572634586.529283) can0 228#10A50181001BA47F
(1572634586.530235) can0 2E8#D8000000611BA47F
(1572634586.531202) can0 398#3427101800000000
(1572634586.536479) can0 1A8#0011367F0E750000
(1572634586.538993) can0 3B8#8000000000000000
(1572634586.539992) can0 448#0000FF0000000000
(1572634586.540975) can0 2C8#CB00000000007F7F
(1572634586.541985) can0 0C8#0000000000000000
(1572634586.545886) can0 308#F000000000050000
(1572634586.547502) can0 088#DF07041B3000FFFF
(1572634586.557424) can0 028#1000060000000000
(1572634586.558371) can0 0C8#0000000000000000
(1572634586.559377) can0 108#0000000000000000
(1572634586.560370) can0 168#000003E400000000
(1572634586.561353) can0 1D8#10000000CA057E85
(1572634586.562351) can0 208#0002000000000000
(1572634586.563319) can0 388#8000C080001BA47F
(1572634586.564294) can0 50C#0F1200000C000000
(1572634586.566388) can0 228#10A50181001BA47F
(1572634586.567555) can0 088#DF08041B4000FFFF
(1572634586.568506) can0 0A8#78F09105BF3E0000
(1572634586.569465) can0 268#A30800000C030800
(1572634586.570448) can0 1C8#000002081F022011
(1572634586.571416) can0 2A8#C000000001287000
(1572634586.573359) can0 0C8#0000000000000000
(1572634586.574807) can0 248#00007BE1803D2E00
(1572634586.576510) can0 068#FC004031BCD54204
(1572634586.577461) can0 1A8#0011367F0E750000
(1572634586.578420) can0 368#DDC8D72200000000
(1572634586.579403) can0 398#3427101800000000
(1572634586.585816) can0 048#FE0000003DFE03FF
(1572634586.586806) can0 488#80FFFFFFFFFFFFFF
(1572634586.587788) can0 088#DF09041B5000FFFF
(1572634586.589330) can0 0C8#0000000000000000
(1572634586.590395) can0 128#C000000000003F3F
(1572634586.596044) can0 308#F000000000050000
(1572634586.600443) can0 2C8#CB00000000007F7F
(1572634586.605419) can0 028#1000060000000000
(1572634586.606425) can0 0C8#0000000000000000
(1572634586.607424) can0 108#0000000000000000
(1572634586.608405) can0 088#DF0B041B7000FFFF
(1572634586.609391) can0 168#000003E400000000
(1572634586.610349) can0 188#600000001BA47F00
(1572634586.611316) can0 1D8#10000000CA057E85
(1572634586.612263) can0 228#10E50181001BA47F
(1572634586.613200) can0 2E8#98000000611BA47F
(1572634586.614223) can0 208#0002000000000000
(1572634586.615198) can0 348#4810000042000000
(1572634586.616188) can0 388#8000C080001BA47F
(1572634586.617139) can0 1A8#0011367F0E750000
(1572634586.618089) can0 0A8#78F09105BF3E0000
(1572634586.619048) can0 268#A30800000C030800
(1572634586.619993) can0 3C8#8029C61000000000
(1572634586.621489) can0 0C8#0000000000000000
(1572634586.626498) can0 068#FC004031BCD54204
(1572634586.627464) can0 398#3427101800000000
(1572634586.628447) can0 088#DF0C041B8000FFFF
(1572634586.629446) can0 3B8#8000000000000000
(1572634586.630445) can0 448#0000FF0000000000
(1572634586.634793) can0 1C8#000002081F022011
(1572634586.635782) can0 248#00007BE1803D2E00
(1572634586.637470) can0 0C8#0000000000000000
(1572634586.645844) can0 048#FE0000003DFE03FF
(1572634586.646791) can0 228#10A50181001BA47F
(1572634586.647788) can0 088#DF0D041B9000FFFF
(1572634586.648758) can0 308#F000000000050000
(1572634586.649742) can0 328#E000000000000000
(1572634586.650746) can0 400#2300000000000000
(1572634586.651709) can0 368#DDC8D72200000000
(1572634586.652696) can0 405#2600000000000000
(1572634586.653704) can0 028#1000060000000000
(1572634586.654711) can0 0C8#0000000000000000
(1572634586.655711) can0 108#0000000000000000
(1572634586.656709) can0 168#000003E400000000
(1572634586.657660) can0 1A8#0011367F0E750000
(1572634586.658627) can0 1D8#10000000CA057E86
(1572634586.659602) can0 388#8000C080001BA47F
(1572634586.660585) can0 2C8#CB00000000007F7F
(1572634586.665353) can0 128#C000000000003F3F
(1572634586.667535) can0 088#DF0F041BB000FFFF
(1572634586.668486) can0 0A8#78F09105BF3E0000
(1572634586.669508) can0 208#0002000000000000
(1572634586.670514) can0 0C8#0000000000000000
(1572634586.671473) can0 268#A30800000C030800
(1572634586.672444) can0 2A8#C000000001287000
(1572634586.673416) can0 50F#111200000C000000
(1572634586.676544) can0 068#FC004031BCD54204
(1572634586.677511) can0 398#3427101800000000
(1572634586.685506) can0 0C8#0000000000000000
(1572634586.686437) can0 228#10A50181001BA47F
(1572634586.687379) can0 2E8#98000000611BA47F
(1572634586.688338) can0 088#DF10041BC000FFFF
(1572634586.694911) can0 248#00007BE1803D2E00
(1572634586.696133) can0 308#F000000000050000
(1572634586.697085) can0 1A8#0011367F0E750000
(1572634586.699902) can0 1C8#000002081F022011
(1572634586.701485) can0 028#1000060000000000
(1572634586.702496) can0 0C8#0000000000000000
(1572634586.703491) can0 108#0000000000000000
(1572634586.704493) can0 168#000003E400000000
(1572634586.705465) can0 188#200000001BA47F00
(1572634586.706464) can0 048#FF8000003DFE03FF
(1572634586.707431) can0 1D8#10000000CA057E86
(1572634586.708410) can0 088#DF11041BD000FFFF
(1572634586.709374) can0 348#4810000042000000
(1572634586.710340) can0 378#0000000000132E33
(1572634586.711324) can0 388#8000C080001BA47F
(1572634586.712284) can0 3C8#8029C61000000000
(1572634586.717466) can0 0C8#0000000000000000
(1572634586.718416) can0 0A8#78F09105BF3E0000
(1572634586.719375) can0 268#A30800000C030800
(1572634586.720372) can0 3B8#8000000000000000
(1572634586.721356) can0 2C8#CB00000000007F7F
(1572634586.722359) can0 448#0000FF0000000000
(1572634586.724058) can0 208#0002000000000000
(1572634586.726345) can0 228#10A50181001BA47F
(1572634586.727288) can0 068#FC004031BCD54204
(1572634586.728264) can0 088#DF04041B0000FFFF
(1572634586.729207) can0 368#DD88D72200000000
(1572634586.730174) can0 398#3427101800000000
(1572634586.731158) can0 401#1B1F405600000000
(1572634586.732151) can0 402#2300000000000000
(1572634586.733148) can0 404#2600000000000000
(1572634586.734155) can0 0C8#0000000000000000
(1572634586.736523) can0 1A8#0011367F0E750000
(1572634586.740346) can0 128#C000000000003F3F
(1572634586.745934) can0 308#F000000000050000
(1572634586.747529) can0 088#DF05041B1000FFFF
(1572634586.749352) can0 028#1000060000000000
(1572634586.750359) can0 0C8#0000000000000000
(1572634586.751358) can0 108#0000000000000000
(1572634586.752358) can0 168#000003E400000000
(1572634586.753316) can0 1D8#10000000CA057E87
(1572634586.754291) can0 388#8000C080001BA47F
(1572634586.755283) can0 248#00007BE1803D2E00
(1572634586.765027) can0 1C8#000002081F022011
(1572634586.766006) can0 048#FE0000003DFE03FF
(1572634586.767013) can0 0C8#0000000000000000
(1572634586.767981) can0 088#DF06041B2000FFFF
(1572634586.768932) can0 0A8#78F09105BF3E0000
(1572634586.769882) can0 228#10A50181001BA47F
(1572634586.770840) can0 268#A30800000C030800
(1572634586.771808) can0 2A8#C000000001287000
(1572634586.772748) can0 2E8#98000000611BA47F
(1572634586.776540) can0 068#FC004031BCD54204
(1572634586.777492) can0 1A8#0011367F0E750000
(1572634586.778459) can0 398#3427101800000000
(1572634586.779482) can0 208#0002000000000000
(1572634586.780520) can0 2C8#CB00000000007F7F
(1572634586.781535) can0 0C8#0000000000000000
(1572634586.787545) can0 088#DF08041B4000FFFF
(1572634586.788495) can0 511#1312000011000012
(1572634586.796291) can0 308#F000000000050000
(1572634586.797279) can0 328#E000000000000000
(1572634586.798286) can0 028#1000060000000000
(1572634586.799293) can0 0C8#0000000000000000
(1572634586.800292) can0 108#0000000000000000
(1572634586.801291) can0 168#000003E400000000
(1572634586.802267) can0 188#200000001BA47F00
(1572634586.803225) can0 1D8#10000000CA057E87
(1572634586.804199) can0 348#4810000042000000
(1572634586.805158) can0 368#DDC8D72200000000
(1572634586.806133) can0 388#8000C080001BA47F
(1572634586.807085) can0 228#10A50181001BA47F
(1572634586.808051) can0 088#DF09041B5000FFFF
(1572634586.809062) can0 3B8#8000000000000000
(1572634586.810009) can0 3C8#8029C61000000000
(1572634586.811007) can0 448#0000FF0000000000
(1572634586.813522) can0 0C8#0000000000000000
(1572634586.815143) can0 248#00007BE1803D2E00
(1572634586.816125) can0 128#C000000000003F3F
(1572634586.817077) can0 1A8#0011367F0E750000
(1572634586.818029) can0 0A8#78F09105BF3E0000
(1572634586.818988) can0 268#A30800000C030800
(1572634586.825608) can0 048#FE0000003DFE03FF
(1572634586.826547) can0 068#FC004031BCD54204
(1572634586.827514) can0 398#3427101800000000
(1572634586.828482) can0 088#DF0A041B6000FFFF
(1572634586.829504) can0 0C8#0000000000000000
(1572634586.830488) can0 1C8#000002081F022011
(1572634586.834067) can0 208#0002000000000000
(1572634586.840480) can0 2C8#CB00000000007F7F
(1572634586.845482) can0 028#1000060000000000
(1572634586.846478) can0 0C8#0000000000000000
(1572634586.847477) can0 108#0000000000000000
(1572634586.848460) can0 088#DF0C041B8000FFFF
(1572634586.849458) can0 168#000003E400000000
(1572634586.850416) can0 1D8#10000000CA057E87
(1572634586.851366) can0 228#10A50181001BA47F
(1572634586.852313) can0 2E8#98000000611BA47F
(1572634586.853292) can0 308#F000000000050000
(1572634586.854267) can0 388#8000C080001BA47F
(1572634586.856554) can0 1A8#0011367F0E750000
(1572634586.861490) can0 0C8#0000000000000000
(1572634586.866603) can0 488#80FFFFFFFFFFFFFF
(1572634586.867578) can0 088#DF0D041B9000FFFF
(1572634586.868529) can0 0A8#78F09105BF3E0000
(1572634586.869488) can0 268#A30800000C030800
(1572634586.870455) can0 2A8#C000000001287000
(1572634586.875283) can0 248#00007BE1803D2E00
(1572634586.876546) can0 068#FC004031BCD54204
(1572634586.877552) can0 0C8#0000000000000000
(1572634586.878512) can0 368#DDC8D72200000000
(1572634586.879481) can0 398#3427101800000000
(1572634586.882559) can0 3E8#400048B31C1D8400
(1572634586.883551) can0 4A8#0000000000000000
(1572634586.885702) can0 048#FE0000003DFE03FF
(1572634586.886653) can0 228#10A50181001BA47F
(1572634586.887619) can0 088#FF0E041BA000FFFF
(1572634586.889051) can0 208#0002000000000000
(1572634586.890402) can0 128#C000000000003F3F
(1572634586.892588) can0 4A8#0000000000000000
(1572634586.893593) can0 028#1000060000000000
(1572634586.894599) can0 0C8#0000000000000000
(1572634586.895603) can0 0E8#0000000000000000
(1572634586.896599) can0 108#0000000000000000
(1572634586.897608) can0 168#000003E400000000
(1572634586.898564) can0 188#600000001BA47F00
(1572634586.899510) can0 1A8#0011367F0E750000
(1572634586.900474) can0 1C8#800002081F022011
(1572634586.901440) can0 1D8#10000000CA057E88
(1572634586.902445) can0 0E8#0000000000000000
(1572634586.903421) can0 2C8#CB00000000007F7F
(1572634586.904405) can0 308#F000000000050000
(1572634586.905379) can0 348#4810000042000000
(1572634586.906355) can0 388#8000C080001BA47F
(1572634586.907353) can0 3B8#8000000000000000
(1572634586.908312) can0 088#FF10041BC000FFFF
(1572634586.909284) can0 3C8#8029C61000000000
(1572634586.910278) can0 0C8#0000000000000000
(1572634586.911277) can0 0E8#0000000000000000
(1572634586.912287) can0 400#2400000000000000
(1572634586.913274) can0 405#2700000000000000
(1572634586.914271) can0 448#0000FF0000000000
(1572634586.915270) can0 4A8#0000000000000000
(1572634586.916268) can0 4A8#0000000000000000
(1572634586.917235) can0 513#011200001300000D
(1572634586.918202) can0 0A8#FEF49105BF3E0000
(1572634586.919203) can0 0E8#0000000000000000
(1572634586.920153) can0 268#EB0800000C030800
(1572634586.922577) can0 4A8#0000000000000000
(1572634586.925343) can0 0C8#0000000000000000
(1572634586.926340) can0 0E8#0000000000000000
(1572634586.927284) can0 068#FC004031BCD54204
(1572634586.928242) can0 088#FF11041BD000FFFF
(1572634586.929185) can0 228#10E50181001BA47F
(1572634586.930127) can0 2E8#98000000611BA47F
(1572634586.931094) can0 398#3427101800000000
(1572634586.932618) can0 4A8#0000000000000000
(1572634586.933614) can0 0E8#0000000000000000
(1572634586.936303) can0 248#00007BE1803D2E00
(1572634586.937254) can0 1A8#0011367F0E750000
(1572634586.941461) can0 028#1000060000000000
(1572634586.942472) can0 0C8#0000000000000000
(1572634586.943467) can0 108#0000000000000000
(1572634586.944465) can0 168#000003E400000000
(1572634586.945431) can0 1D8#10000000CA057E89
(1572634586.946414) can0 048#FE0000003DFE03FF
(1572634586.947435) can0 208#0002000000000000
(1572634586.948402) can0 088#FF12041BE000FFFF
(1572634586.949385) can0 308#F000000000050000
(1572634586.950384) can0 0E8#0000000000000000
(1572634586.951375) can0 328#E000000000000000
(1572634586.952337) can0 368#DDC8D72200000000
(1572634586.953309) can0 388#8000C080001BA47F
(1572634586.954308) can0 4A8#0000000000000000
(1572634586.955306) can0 4A8#0000000000000000
(1572634586.957570) can0 0C8#0000000000000000
(1572634586.958568) can0 0E8#0000000000000000
(1572634586.960503) can0 2C8#CB00000000007F7F
(1572634586.961472) can0 1C8#800002081F022011
(1572634586.962630) can0 4A8#0000000000000000
(1572634586.965366) can0 128#C000000000003F3F
(1572634586.966364) can0 0E8#0000000000000000
(1572634586.967316) can0 228#10A50181001BA47F
(1572634586.968291) can0 088#FF05041B1000FFFF
(1572634586.969258) can0 0A8#FEF49105BF3E0000
(1572634586.970209) can0 268#EB0800000C030800
(1572634586.971177) can0 2A8#C000000001287000
(1572634586.972593) can0 4A8#0000000000000000
(1572634586.973598) can0 0C8#0000000000000000
(1572634586.976558) can0 068#FC004031BCD54204
(1572634586.977509) can0 1A8#0011367F0E750000
(1572634586.978477) can0 398#3427101800000000
(1572634586.979435) can0 401#1C000086030E0000
(1572634586.980443) can0 402#2400000000000000
(1572634586.981458) can0 404#2700000000000000
(1572634586.982461) can0 0E8#0000000000000000
(1572634586.983457) can0 4A8#0000000000000000
(1572634586.987545) can0 088#FF06041B2000FEFF
(1572634586.989008) can0 3B8#8000000000000000
(1572634586.990015) can0 028#1000060000000000
(1572634586.991022) can0 0C8#0000000000000000
(1572634586.992024) can0 108#0000000000000000
(1572634586.993020) can0 168#000003E400000000
(1572634586.993995) can0 188#200000001BA47F00
(1572634586.994962) can0 1D8#10000000CA057E89
(1572634586.995937) can0 348#4810000042000000
(1572634586.996944) can0 248#00007BE1803D2E00
(1572634586.997927) can0 0E8#0000000000000000
(1572634586.998910) can0 308#F000000000050000
(1572634586.999933) can0 208#0002000000000000
(1572634587.000922) can0 388#8000C080001BA47F
(1572634587.001867) can0 3C8#8029C61000000000
(1572634587.002866) can0 448#0000FF0000000000
(1572634587.003866) can0 4A8#0000000000000000
(1572634587.004865) can0 4A8#0000000000000000
(1572634587.005872) can0 0C8#0000000000000000
(1572634587.006870) can0 048#FF8000003DFE03FF
(1572634587.007837) can0 088#FF07041B3000FEFF
(1572634587.008835) can0 0E8#0000000000000000
(1572634587.009797) can0 228#10A50181001BA47F
(1572634587.010737) can0 2E8#D8000000611BA47F
(1572634587.012627) can0 4A8#0000000000000000
(1572634587.013622) can0 0E8#0000000000000000
(1572634587.016574) can0 1A8#0011367F0E750000
(1572634587.017589) can0 0A8#FEF49105BF3E0000
(1572634587.018541) can0 268#EB0800000C030800
(1572634587.020507) can0 2C8#CB00000000007F7F
(1572634587.021538) can0 0C8#0000000000000000
(1572634587.022619) can0 4A8#0000000000000000
(1572634587.026107) can0 1C8#840002081F022011
(1572634587.027050) can0 068#FC004031BCD54204
(1572634587.028017) can0 088#FF09041B5000FFFF
(1572634587.028977) can0 368#DDC8D72200000000
(1572634587.029975) can0 0E8#0000000000000000
(1572634587.030943) can0 398#3427101800000000
(1572634587.032618) can0 4A8#0000000000000000
(1572634587.037510) can0 028#1000060000000000
(1572634587.038517) can0 0C8#0000000000000000
(1572634587.039516) can0 0E8#0000000000000000
(1572634587.040515) can0 108#0000000000000000
(1572634587.041498) can0 128#C000000000003F3F
(1572634587.042501) can0 168#000003E400000000
(1572634587.043464) can0 1D8#10000000CA057E89
(1572634587.044439) can0 388#8000C080001BA47F
(1572634587.045438) can0 4A8#0000000000000000
(1572634587.046436) can0 0E8#0000000000000000
(1572634587.047387) can0 228#10A50181001BA47F
(1572634587.048346) can0 088#FF0A041B6000FFFF
(1572634587.049329) can0 308#F000000000050000
(1572634587.050303) can0 501#031200001300000D
(1572634587.052624) can0 4A8#0000000000000000
(1572634587.053630) can0 0C8#0000000000000000
(1572634587.054653) can0 208#0002000000000000
(1572634587.056589) can0 1A8#0011367F0E750000
(1572634587.057532) can0 248#C0800F990D939C00
(1572634587.061484) can0 0E8#0000000000000000
(1572634587.062623) can0 4A8#0000000000000000
(1572634587.066060) can0 048#FE0000003DFE03FF
(1572634587.067581) can0 088#FF0B041B7000FFFF
(1572634587.068539) can0 0A8#FEF49105BF3E0000
(1572634587.069545) can0 0C8#0000000000000000
(1572634587.070544) can0 0E8#0000000000000000
(1572634587.071496) can0 268#EB0800000C030800
(1572634587.072465) can0 2A8#C000000001287000
(1572634587.073454) can0 4A8#017F090000000000
(1572634587.076575) can0 068#FC004031BCD54204
(1572634587.077574) can0 0E8#0000000000000000
(1572634587.078541) can0 398#3427101800000000
(1572634587.079539) can0 3B8#8000000000000000
(1572634587.080538) can0 448#0000FF0000000000
(1572634587.081522) can0 2C8#CB00000000007F7F
(1572634587.082635) can0 4A8#017F090000000000
(1572634587.085449) can0 028#1000060000000000
(1572634587.086456) can0 0C8#0000000000000000
(1572634587.087414) can0 0E8#020009DD8E809F7E
(1572634587.088381) can0 088#FF0D041B9000FFFF
(1572634587.089381) can0 108#0000000000000000
(1572634587.090379) can0 168#000003E400000000
(1572634587.091338) can0 188#600000001BA47F00
(1572634587.092310) can0 1C8#800002081F022011
(1572634587.093273) can0 1D8#10000000CA057E8A
(1572634587.094231) can0 0E8#020009DD8E809F7E
(1572634587.095181) can0 228#10A50181001BA47F
(1572634587.096124) can0 2E8#98000000611BA47F
(1572634587.097082) can0 1A8#0011367F0E740000
(1572634587.098064) can0 308#F000000000050000
(1572634587.099055) can0 328#E000000000000000
(1572634587.100029) can0 348#4810000042000000
(1572634587.101005) can0 388#8000C080001BA47F
(1572634587.102014) can0 0C8#0000000000000000
(1572634587.102971) can0 0E8#020009DD8E809F7E
(1572634587.103930) can0 368#DDC8D72200000000
(1572634587.104889) can0 3C8#8029C61000000000
(1572634587.105880) can0 4A8#017F090000000000
(1572634587.106815) can0 4A8#03FD535425C60000
(1572634587.107782) can0 088#FF0E041BA000FFFF
(1572634587.109045) can0 208#0002000000000000
(1572634587.110014) can0 0E8#020009DD8E809F7E
(1572634587.112537) can0 4A8#03FD535425C60000
(1572634587.115364) can0 128#C000000000003F3F
(1572634587.116323) can0 248#00800F990D939C00
(1572634587.117474) can0 0C8#0000000000000000
(1572634587.118441) can0 0A8#FEF49105BF3E0000
(1572634587.119424) can0 0E8#04817F0000000000
(1572634587.120367) can0 268#EB0800000C430800
(1572634587.122552) can0 4A8#03FD535425C60000
(1572634587.125463) can0 0E8#04817F0000000000
(1572634587.126445) can0 048#FE0000003DFE03FF
(1572634587.127388) can0 068#FC004031BCD54204
(1572634587.128347) can0 088#FF0F041BB000FFFF
(1572634587.129297) can0 228#10A50181001BA47F
(1572634587.130265) can0 398#3427101800000000
(1572634587.132652) can0 4A8#0500000000000000
(1572634587.133935) can0 028#1000060000000000
(1572634587.134942) can0 0C8#0000000000000000
(1572634587.135941) can0 108#0000000000000000
(1572634587.136940) can0 168#000003E400000000
(1572634587.137899) can0 1A8#0011367F0E740000
(1572634587.138867) can0 1D8#10000000CA057E8A
(1572634587.139842) can0 388#8000C080001BA47F
(1572634587.140826) can0 2C8#CB00000000007F7F
(1572634587.141812) can0 0E8#04817F0000000000
(1572634587.142800) can0 4A8#0500000000000000
(1572634587.146362) can0 308#F000000000050000
(1572634587.147359) can0 400#0113000000000000
(1572634587.148328) can0 088#FF130619D000FFFF
(1572634587.149252) can0 405#0164CA057E8A4204
(1572634587.150254) can0 0C8#0000000000000000
(1572634587.151237) can0 0E8#04817F0000000000
(1572634587.152229) can0 488#80FFFFFFFFFFFFFF
(1572634587.153225) can0 4A8#0500000000000000
(1572634587.156491) can0 503#041200001300000D
(1572634587.158387) can0 1C8#800002081F022011
(1572634587.159394) can0 4D8#0000000000000000
(1572634587.162630) can0 4A8#0500000000000000
(1572634587.164242) can0 208#0002000000000000
(1572634587.165593) can0 0C8#0000000000000000
(1572634587.166542) can0 228#10A50181001BA47F
(1572634587.167485) can0 2E8#98000000611BA47F
(1572634587.168444) can0 088#FF140619E000FFFF
(1572634587.169412) can0 0A8#FEF49105BF3E0000
(1572634587.170363) can0 268#EB08000004430800
(1572634587.171321) can0 2A8#C000000401387000
(1572634587.172324) can0 3B8#8000000000000000
(1572634587.173320) can0 448#0000FF0000000000
(1572634587.174310) can0 4A8#0500000000000000
(1572634587.176143) can0 248#00800F990D939C00
(1572634587.177086) can0 068#FC004031BCD54204
(1572634587.178045) can0 1A8#0011367F0E740000
(1572634587.179005) can0 368#DDC8D72200000000
(1572634587.179972) can0 398#3427101800000000
(1572634587.181693) can0 028#1000160000000000
(1572634587.182698) can0 0C8#0000000000000000
(1572634587.183697) can0 108#0000000000000000
(1572634587.184696) can0 168#000003E400000000
(1572634587.185671) can0 188#200000001BA47F00
(1572634587.186653) can0 048#FE0000003DFE03FF
(1572634587.187620) can0 088#FF0606190000FFFF
(1572634587.188578) can0 1D8#10000000CA057E8B
(1572634587.189583) can0 288#0000000000000000
(1572634587.190564) can0 128#C000000000003F3F
(1572634587.191564) can0 338#0000000000000000
(1572634587.192531) can0 348#68D0000042000000
(1572634587.193489) can0 388#8000D880001BA47F
(1572634587.194449) can0 3C8#8029C61000000000
(1572634587.195441) can0 4A8#0500000000000000
(1572634587.196431) can0 4A8#0500000000000000
(1572634587.197415) can0 308#F000000000050000
(1572634587.198422) can0 0C8#0000000000000000
(1572634587.200526) can0 2C8#CB00000000007F7F
(1572634587.202608) can0 4A8#0500000000000000
(1572634587.206131) can0 228#10E50181001BA47F
(1572634587.207578) can0 088#FF0806192000FFFF
(1572634587.212623) can0 4A8#0500000000000000
(1572634587.213628) can0 0C8#0000000000000000
(1572634587.216607) can0 1A8#0011367F0E740000
(1572634587.217599) can0 0A8#FEF49105BFFE0000
(1572634587.218558) can0 268#EB08000004030800
(1572634587.219525) can0 208#C0020820810828AE
(1572634587.221126) can0 1C8#800002081F022011
(1572634587.222610) can0 4A8#0500000000000000
(1572634587.226597) can0 068#FF004031BCD54204
(1572634587.227564) can0 398#3427101800000000
(1572634587.228514) can0 088#FF0906193000FEFF
(1572634587.229529) can0 028#1000160000000000
(1572634587.230536) can0 0C8#0000000000000000
(1572634587.231535) can0 108#0000000000000000
(1572634587.232527) can0 168#000003E300000000
(1572634587.233485) can0 1D8#10000000CA057E8B
(1572634587.234477) can0 1E8#3400000000000000
(1572634587.235438) can0 388#8000D880001BA47F
(1572634587.236397) can0 248#00800F990D939C00
(1572634587.237349) can0 401#01FD021353414A41
(1572634587.238331) can0 402#0113000000000000
(1572634587.239283) can0 404#0164CA057E8A4204
(1572634587.245436) can0 0C8#0800000000000000
(1572634587.246417) can0 048#FE0000003DFE03FF
(1572634587.247366) can0 228#10A50181001BA47F
(1572634587.248309) can0 088#FF0A06194000FEFF
(1572634587.249251) can0 2E8#98000000611BA47F
(1572634587.250234) can0 308#F000000000050000
(1572634587.251225) can0 328#E000000000000000
(1572634587.252189) can0 368#DDC8D72200000000
(1572634587.256601) can0 1A8#0011367F0E740000
(1572634587.259024) can0 3B8#8000000000000000
(1572634587.260022) can0 448#0000FF0000000000
(1572634587.261005) can0 2C8#CB00000000007F7F
(1572634587.262006) can0 0C8#0800000000000000
(1572634587.262994) can0 504#0502002104000000
(1572634587.265433) can0 128#C000000000003F3F
(1572634587.267568) can0 088#FF0C06196000FEFF
(1572634587.268519) can0 0A8#FEF49105BFFE0000
(1572634587.269479) can0 268#EB08000004030800
(1572634587.270438) can0 2A8#C000000401387000
(1572634587.274007) can0 208#C0020820810828AE
(1572634587.276605) can0 068#FF004031BBD44204
(1572634587.277572) can0 398#3427101800000000
(1572634587.278563) can0 028#36001600C0000000
(1572634587.279569) can0 0C8#0000000000000000
(1572634587.280569) can0 108#4000000000000000
(1572634587.281560) can0 168#000003E200008000
(1572634587.282519) can0 188#600000001BA47F00
(1572634587.283478) can0 1D8#10000000CA057E8C
(1572634587.284471) can0 1E8#3400000000000000
(1572634587.285459) can0 288#F0000000FFFFFFFF
(1572634587.286427) can0 1C8#800002081F022011
(1572634587.287376) can0 228#10A50181001BA47F
(1572634587.288328) can0 088#FF0D06197000FFFF
(1572634587.289303) can0 348#68D05F0042000000
(1572634587.290262) can0 388#8000D880001BA47F
(1572634587.291221) can0 3C8#8029C61000000000
(1572634587.293712) can0 0C8#0800400000000000
(1572634587.296158) can0 248#00800F990D939C00
(1572634587.297117) can0 1A8#0011367F0E740000
(1572634587.298101) can0 308#F000000000050000
(1572634587.305798) can0 048#FF8000003DFE03FF
(1572634587.307588) can0 088#FF0E06198000FFFF
(1572634587.309706) can0 0C8#9A0040561E780000
(1572634587.317606) can0 0A8#FEF49105BFFE0000
(1572634587.318522) can0 268#EB08000004030800
(1572634587.320529) can0 2C8#CB00000000007F7F
(1572634587.324011) can0 396#0000000000008084
(1572634587.325729) can0 028#3E001600C0000000
(1572634587.326664) can0 068#FF004031BBD44204
(1572634587.327622) can0 088#FF100619A000FFFF
(1572634587.328573) can0 0C8#9A0040561E780000
(1572634587.329571) can0 108#4000000000000000
(1572634587.330563) can0 168#000003E200008000
(1572634587.331513) can0 1D8#50000000CA057E8C
(1572634587.332507) can0 1E8#3400000000000000
(1572634587.333472) can0 208#C0020820810828AE
(1572634587.334422) can0 228#10A50181001BA47F
(1572634587.335364) can0 2E8#98000000611BA47F
(1572634587.336362) can0 338#0000000000000000
(1572634587.337321) can0 1A8#0011367F0E740000
(1572634587.338264) can0 368#DD88D72200000000
(1572634587.339223) can0 388#8000D880001BA47F
(1572634587.340191) can0 398#3427101800000000
(1572634587.341174) can0 128#C000000000003F3F
(1572634587.342129) can0 0C8#9A0040561E780000
(1572634587.345941) can0 308#F000000000050000
(1572634587.347581) can0 088#FF142916B000FFFF
(1572634587.349035) can0 3B8#8000000000000000
(1572634587.350034) can0 448#0000FF0000000000
(1572634587.351459) can0 1C8#800002081F022011
(1572634587.356382) can0 248#00800F990D939C00
(1572634587.357636) can0 0C8#F7C04F561E780000
(1572634587.366116) can0 228#10A50181001BA47F
(1572634587.367096) can0 048#FE0000003DFE03FF
(1572634587.368047) can0 088#FF152956C000FFFF
(1572634587.368998) can0 0A8#FEF49105BFFE0000
(1572634587.369957) can0 268#EB08000004030800
(1572634587.370924) can0 2A8#C000000401287000
(1572634587.371901) can0 505#0802002105000000
(1572634587.373971) can0 028#7E001600C0000000
(1572634587.374905) can0 0C8#FEC04F561E780000
(1572634587.375864) can0 108#DD00600005920000
(1572634587.376807) can0 068#FF004031BCD44204
(1572634587.377766) can0 168#B88003E26C0083FF
(1572634587.378692) can0 188#389191961BA47F00
(1572634587.379651) can0 1A8#0011367F0E740000
(1572634587.380610) can0 1D8#D0000000CA057E8D
(1572634587.381631) can0 2C8#CB00000000007F7F
(1572634587.382552) can0 348#78D05F0042380000
(1572634587.383478) can0 388#F663D880001BA47F
(1572634587.384446) can0 208#C0020820810828AE
(1572634587.385412) can0 398#3427101800000000
(1572634587.386379) can0 3C8#C029C61000000000
(1572634587.387610) can0 088#FF172956E000FFFF
(1572634587.389825) can0 0C8#FEC04F561E780000
(1572634587.396388) can0 308#F000000000050000
(1572634587.397375) can0 328#E000000000000000
(1572634587.398356) can0 400#0202000200010005
(1572634587.399287) can0 405#023D36003102C3A6
(1572634587.401690) can0 368#DDC8D72200000000
(1572634587.405698) can0 2E8#98000000611BA47F
(1572634587.406632) can0 0C8#FEC04F561E780000
(1572634587.407582) can0 228#10A50181001BA47F
(1572634587.408534) can0 088#FF0929560000FFFF
(1572634587.415372) can0 128#C000000000003F3F
(1572634587.416558) can0 1C8#800002081F022011
(1572634587.417573) can0 1A8#0011367F0E740000
(1572634587.418467) can0 0A8#FEF49105BFFE0000
(1572634587.419426) can0 248#00800F990D939C00
(1572634587.420385) can0 268#EB08000004030800
(1572634587.421520) can0 028#7E001600C0000000
(1572634587.422456) can0 0C8#FEC04F561E780000
(1572634587.423414) can0 108#DD00600005920000
(1572634587.424374) can0 168#B88003E26C0083FF
(1572634587.425324) can0 1D8#50000000CA057E8D
(1572634587.426251) can0 388#8663D880001BA47F
(1572634587.427235) can0 048#FE0000003DFE03FF
(1572634587.428178) can0 068#7F004030BCD44204
(1572634587.429121) can0 088#FF0A29561000FFFF
(1572634587.430089) can0 398#3427101800000000
(1572634587.431080) can0 488#80FFFFFFFFFFFFFF
(1572634587.437560) can0 0C8#F6C04F561E780000
(1572634587.438997) can0 208#C0020820810828AE
(1572634587.439996) can0 3B8#8000000000000000
(1572634587.440980) can0 2C8#CB00000000007F7F
(1572634587.441981) can0 448#0000FF0000000000
(1572634587.446065) can0 228#10A50181001BA47F
(1572634587.447029) can0 288#F000000000910091
(1572634587.447980) can0 088#FF0C29563000FFFF
(1572634587.448964) can0 308#F000000000050000
(1572634587.453539) can0 0C8#FFC04F561E780000
(1572634587.456652) can0 1A8#0011367F0E740000
(1572634587.467578) can0 088#FF0D29564000FFFF
(1572634587.468524) can0 0A8#FEF49105BFFE0000
(1572634587.469483) can0 268#EB08000004030800
(1572634587.470467) can0 028#7E00160000800000
(1572634587.471401) can0 0C8#FEC04F561E780000
(1572634587.472365) can0 108#DD00600005920000
(1572634587.473320) can0 168#B88003E26C0083FF
(1572634587.474247) can0 188#289191961BA47F00
(1572634587.475196) can0 1D8#50000000CA057E8E
(1572634587.476163) can0 2A8#C000000401287000
(1572634587.477107) can0 068#7F004030BCD54204
(1572634587.478066) can0 248#00800F990D939C00
(1572634587.479025) can0 348#78D05F0042380000
(1572634587.479984) can0 368#DDC8D72200000000
(1572634587.480911) can0 388#8663D880001BA47F
(1572634587.481880) can0 1C8#800002081F022011
(1572634587.482845) can0 398#3427101800000000
(1572634587.483812) can0 3C8#C029C61000000000
(1572634587.484731) can0 401#0243303631383937
(1572634587.485706) can0 402#0202000200010005
(1572634587.486688) can0 048#FE0000003DFE03FF
(1572634587.487630) can0 088#FF0E29565000FFFF
(1572634587.488564) can0 0C8#FEC04F561E780000
(1572634587.489515) can0 228#10A50181001BA47F
(1572634587.490504) can0 128#C000000000003F3F
(1572634587.491448) can0 2E8#D8000000611BA47F
(1572634587.492448) can0 338#0000000000000000
(1572634587.493382) can0 404#023D36003102C3A6
(1572634587.494347) can0 208#C0020820810828AE
(1572634587.495331) can0 508#0B02880008000000
(1572634587.496586) can0 308#F000000000050000
(1572634587.497529) can0 1A8#0011367F0E730000
(1572634587.500544) can0 2C8#CB00000000007F7F
(1572634587.501729) can0 0C8#FEC04F571E780000
(1572634587.507583) can0 088#FF1029567000FFFF
(1572634587.517638) can0 0A8#FEF49105BFFE0000
(1572634587.518568) can0 028#7E00160000800000
(1572634587.519493) can0 0C8#F6C04F561E780000
(1572634587.520452) can0 108#DD00600005920000
(1572634587.521411) can0 168#B88003E26C0083FF
(1572634587.522363) can0 1D8#50000000CA057E8E
(1572634587.523320) can0 268#EB08000004030800
(1572634587.524247) can0 388#8663D880001BA47F
(1572634587.526077) can0 228#10E50181001BA47F
(1572634587.527021) can0 068#7F004030BCD54204
(1572634587.527972) can0 088#FF1129568000FFFF
(1572634587.528939) can0 398#3427101800000000
(1572634587.529938) can0 3B8#8000000000000000
(1572634587.530937) can0 448#0000FF0000000000
(1572634587.533773) can0 0C8#FEC04F561E780000
(1572634587.536649) can0 1A8#0011367F0E730000
(1572634587.537609) can0 248#00800F990D939C00
(1572634587.545901) can0 048#FE0000003DFE03FF
(1572634587.546865) can0 1C8#800002081F022011
(1572634587.547807) can0 088#FF1229569000FFFF
(1572634587.548791) can0 308#F000000000050000
(1572634587.549774) can0 208#C0020820810828AE
(1572634587.550708) can0 0C8#FFC04F561E780000
(1572634587.551700) can0 328#E000000000000000
(1572634587.552659) can0 368#DDC8D72200000000
(1572634587.560514) can0 2C8#CB00000000007F7F
(1572634587.565410) can0 128#C000000000003F3F
(1572634587.566375) can0 028#7E00160000800000
(1572634587.567310) can0 0C8#FEC04F561E780000
(1572634587.568259) can0 088#FF142956B000FFFF
(1572634587.569192) can0 0A8#FEF49105BFFE0000
(1572634587.570159) can0 108#DF00600005920000
(1572634587.571114) can0 168#B88003E26C0083FF
(1572634587.572054) can0 188#289191961BA47F00
(1572634587.573008) can0 1D8#50000000CA057E8F
(1572634587.573953) can0 228#10A50181001BA47F
(1572634587.574909) can0 268#EB08000004030800
(1572634587.575874) can0 2A8#C000000401287000
(1572634587.576817) can0 068#7F004030BCD44204
(1572634587.577761) can0 1A8#0011367F0E730000
(1572634587.578722) can0 2E8#98000000611BA47F
(1572634587.579672) can0 348#78505F0042380000
(1572634587.580623) can0 388#8663C880001BA47F
(1572634587.581653) can0 398#3427101800000000
(1572634587.582525) can0 0C8#FEC04F561E780000
(1572634587.583502) can0 3C8#C029C61000000000
(1572634587.587625) can0 088#FF152956C000FFFF
(1572634587.596297) can0 308#F000000000050000
(1572634587.597228) can0 248#00800F990D939C00
(1572634587.598156) can0 0C8#F6C04F561E780000
(1572634587.600387) can0 50B#0C1200000B000000
(1572634587.604023) can0 208#C0020820810828AE
(1572634587.606027) can0 228#10A50181001BA47F
(1572634587.607039) can0 048#FF8000003DFE03FF
(1572634587.607989) can0 088#FF162956D000FFFF
(1572634587.610324) can0 288#F000000000FF0091
(1572634587.611894) can0 1C8#800002081F022011
(1572634587.613757) can0 028#7E00160000800000
(1572634587.614691) can0 0C8#FEC04F561E780000
(1572634587.615650) can0 108#DD00600005920000
(1572634587.616610) can0 168#B88003E26C0083FF
(1572634587.617560) can0 1A8#0011367F0E710000
(1572634587.618538) can0 0A8#FEF49105BF3E0000
(1572634587.619497) can0 1D8#50000000CA057E8F
(1572634587.620455) can0 268#EB08000004030800
(1572634587.621428) can0 2C8#CB00000000007F7F
(1572634587.622378) can0 388#8663C880001BA47F
(1572634587.623374) can0 3B8#8000000000000000
(1572634587.624373) can0 448#0000FF0000000000
(1572634587.626653) can0 068#7C00402EBCD44204
(1572634587.627612) can0 368#DDC8D72200000000
(1572634587.628579) can0 088#FF0929560000FFFF
(1572634587.629531) can0 398#3427101800000000
(1572634587.630480) can0 0C8#FEC04F561E780000
(1572634587.636641) can0 338#0000000000000000
(1572634587.640359) can0 128#C000000000003F3F
(1572634587.645453) can0 2E8#98000000611BA47F
(1572634587.646396) can0 0C8#FEC04F571E780000
(1572634587.647407) can0 148#0000000000000000
(1572634587.648360) can0 088#FF0A29561000FFFF
(1572634587.649295) can0 228#10A50181001BA47F
(1572634587.650275) can0 308#F000000000050000
(1572634587.651250) can0 400#0303020100020102
(1572634587.652250) can0 405#0000000000000000
(1572634587.656681) can0 1A8#0011367F0E710000
(1572634587.657641) can0 248#00800F990D939C00
(1572634587.659000) can0 208#C0020820810828AE
(1572634587.661736) can0 468#0000000000000000
(1572634587.662711) can0 028#7E00160000800000
(1572634587.663654) can0 0C8#FFC04F571E780000
(1572634587.664613) can0 108#DD00600005920000
(1572634587.665620) can0 148#0000000000000000
(1572634587.666604) can0 048#FE0000003DFE03FF
(1572634587.667562) can0 168#B88003E26C0083FF
(1572634587.668505) can0 088#FF0B29562000FFFF
(1572634587.669472) can0 0A8#FEF49105BF3E0000
(1572634587.670479) can0 148#0000000000000000
(1572634587.671406) can0 188#289191961BA47F00
(1572634587.672366) can0 1D8#50000000CA057E90
(1572634587.673324) can0 268#EB08000004030800
(1572634587.674290) can0 2A8#C000000401287000
(1572634587.675258) can0 348#78505F0042380000
(1572634587.676225) can0 378#0000000000132E34
(1572634587.677167) can0 068#7C00402EBCD44204
(1572634587.678103) can0 0C8#F6C04F571E780000
(1572634587.679070) can0 1C8#800002081F022011
(1572634587.680013) can0 388#8663C880001BA47F
(1572634587.680996) can0 2C8#CB00000000007F7F
(1572634587.681967) can0 398#3427101800000000
(1572634587.682930) can0 3C8#C029C61000000000
(1572634587.683937) can0 468#0000000000000000
(1572634587.684944) can0 468#0000000000000000
(1572634587.685951) can0 148#0000000000000000
(1572634587.686901) can0 228#10A50181001BA47F
(1572634587.687844) can0 088#FF0D29564000FFFF
(1572634587.691777) can0 468#0000000000000000
(1572634587.693756) can0 0C8#FEC04F571E780000
(1572634587.694739) can0 148#017F090000000000
(1572634587.696562) can0 308#F000000000050000
(1572634587.697506) can0 1A8#0011367D0E640000
(1572634587.698497) can0 328#E000000000000000
(1572634587.701804) can0 368#DDC8D72200000000
(1572634587.702618) can0 468#024E4F43E7A70000
(1572634587.704031) can0 50C#0F0200400C000000
(1572634587.706719) can0 488#80FFFFFFFFFFFFFF
(1572634587.707662) can0 088#FF0E29565000FFFF
(1572634587.709037) can0 3B8#8000000000000000
(1572634587.710020) can0 028#7E00160000800000
(1572634587.710963) can0 0C8#FEC04F571E780000
(1572634587.711926) can0 108#DD00600005920000
(1572634587.712922) can0 148#017F090000000000
(1572634587.713868) can0 168#B88003E26C0083FF
(1572634587.714823) can0 1D8#50000000CA057E90
(1572634587.715807) can0 128#C000000000003F3F
(1572634587.716773) can0 208#C0020820810828AE
(1572634587.717752) can0 0A8#FEF49105BF3E0000
(1572634587.718699) can0 248#00800F990D939C00
(1572634587.719658) can0 268#EB08000004030800
(1572634587.720601) can0 388#8663C880001BA47F
(1572634587.721636) can0 448#0000FF0000000000
(1572634587.722535) can0 468#024E4F43E7A70000
(1572634587.723469) can0 468#024E4F43E7A70000
(1572634587.725394) can0 2E8#98000000611BA47F
(1572634587.726337) can0 0C8#FEC04F571E780000
(1572634587.727320) can0 048#FE0000003DFE03FF
(1572634587.728263) can0 068#7C00402EBCD44204
(1572634587.729205) can0 088#FF0F29566000FFFE
(1572634587.730148) can0 148#0387E85636550000
(1572634587.731098) can0 228#10A50181001BA47F
(1572634587.732071) can0 398#3427101800000000
(1572634587.733010) can0 401#0352303035303302
(1572634587.733969) can0 402#0303020100020102
(1572634587.734983) can0 404#0000000000000000
(1572634587.735919) can0 468#024E4F43E7A70000
(1572634587.736862) can0 1A8#0011367D0E640000
(1572634587.740518) can0 2C8#CB00000000007F7F
(1572634587.741698) can0 0C8#FEC04F571E780000
(1572634587.742636) can0 148#0387E85636550000
(1572634587.743603) can0 1C8#800002081F022011
(1572634587.744594) can0 468#04817F0000000000
(1572634587.746626) can0 308#F000000000050000
(1572634587.747649) can0 088#FF1129568000FFFE
(1572634587.751756) can0 468#04817F0000000000
(1572634587.757657) can0 028#7E00160000800000
(1572634587.758592) can0 0C8#F7C04F571E780000
(1572634587.759558) can0 108#DF00600005920000
(1572634587.760549) can0 148#0500000000000000
(1572634587.761508) can0 168#B88003E26C0083FF
(1572634587.762436) can0 188#289191961BA47F00
(1572634587.763387) can0 1D8#50000000CA057E91
(1572634587.764353) can0 348#78505F0042380000
(1572634587.765296) can0 388#8663C880001BA47F
(1572634587.766287) can0 148#0500000000000000
(1572634587.767238) can0 228#10A50181001BA47F
(1572634587.768189) can0 088#FF1229569000FFFE
(1572634587.769155) can0 0A8#FEF49105BF3E0000
(1572634587.770122) can0 208#C0020820810828AE
(1572634587.771080) can0 268#EB08000004030800
(1572634587.772050) can0 2A8#C000000401287000
(1572634587.773005) can0 3C8#C0A9C61000000000
(1572634587.773948) can0 0C8#FEC04F571E780000
(1572634587.774940) can0 468#04817F0000000000
(1572634587.775904) can0 288#F000000000910091
(1572634587.776848) can0 068#7C00402EBBD44204
(1572634587.777799) can0 1A8#0011367B0E500000
(1572634587.778759) can0 248#00800F990D939C00
(1572634587.779719) can0 368#DDC8D72200000000
(1572634587.780686) can0 398#3427101800000000
(1572634587.781817) can0 148#0500000000000000
(1572634587.786324) can0 048#FE0000003DFE03FF
(1572634587.787323) can0 338#0000000000000000
(1572634587.788265) can0 088#FF132956A000FFFF
(1572634587.789641) can0 0C8#FEC04F571E780000
(1572634587.790632) can0 148#0500000000000000
(1572634587.796548) can0 308#F000000000050000
(1572634587.797536) can0 148#0500000000000000
(1572634587.799039) can0 3B8#8000000000000000
(1572634587.800038) can0 448#0000FF0000000000
(1572634587.801020) can0 2C8#CB00000000007F7F
(1572634587.805265) can0 2E8#98000000611BA47F
(1572634587.806246) can0 028#7E00160000800000
(1572634587.807189) can0 0C8#FEC04F571E780000
(1572634587.808140) can0 088#FF152956C000FFFF
(1572634587.809099) can0 108#DD00600005920000
(1572634587.810090) can0 148#0500000000000000
(1572634587.811079) can0 128#0000000000003F3F
(1572634587.812041) can0 168#B88003E36C0083FF
(1572634587.813005) can0 1C8#800002081F022011
(1572634587.813995) can0 148#0500000000000000
(1572634587.814945) can0 1D8#50000000CA057E91
(1572634587.815888) can0 228#10E50181001BA47F
(1572634587.816839) can0 1A8#0011367B0E500000
(1572634587.817814) can0 0A8#FEF49105BF3E0000
(1572634587.818764) can0 268#EB08000004030800
(1572634587.819704) can0 388#8663C880001BA47F
(1572634587.820678) can0 50B#0B0100000B000000
(1572634587.821639) can0 0C8#FEC04F571E780000
(1572634587.822613) can0 148#0500000000000000
(1572634587.823595) can0 50F#111200400C000000
(1572634587.824562) can0 208#C0020820810828AE
(1572634587.826722) can0 068#7C00402BBBD44204
(1572634587.827672) can0 088#FF162956D000FFFF
(1572634587.828640) can0 398#3427101800000000
(1572634587.829632) can0 148#0500000000000000
(1572634587.837237) can0 248#00800F990D939C00
(1572634587.838170) can0 0C8#F6C04F571E780000
(1572634587.845936) can0 228#10A50181001BA47F
(1572634587.846918) can0 048#FE0000003DFE03FF
(1572634587.847868) can0 088#FF172956E000FFFF
(1572634587.848851) can0 308#F000000000050000
(1572634587.849842) can0 328#E000000000000000
(1572634587.851750) can0 368#DDC8D72200000000
(1572634587.853961) can0 028#7E00160000800000
(1572634587.854903) can0 0C8#FFC04F571E780000
(1572634587.855863) can0 108#DD00600005900000
(1572634587.856822) can0 168#B88003E36C0083FF
(1572634587.857749) can0 188#289191961BA47F00
(1572634587.858692) can0 1A8#001136750E1E0000
(1572634587.859643) can0 1D8#50000000CA057E92
(1572634587.860625) can0 2C8#CB00000000007F7F
(1572634587.861630) can0 348#78505F0042380000
(1572634587.862537) can0 388#8663C880001BA47F
(1572634587.863495) can0 3C8#C0A9C61000000000
(1572634587.867630) can0 088#FF0A29561000FFFF
(1572634587.868597) can0 0A8#FEF49105BF3E0000
(1572634587.869556) can0 268#EB08000004030800
(1572634587.870499) can0 0C8#FEC04F571E780000
(1572634587.871467) can0 2A8#C000000401287000
(1572634587.872439) can0 1C8#800002081F022011
(1572634587.876732) can0 068#7C004024BBD44204
(1572634587.877698) can0 398#3427101800000000
(1572634587.879001) can0 208#C0020820810828AE
(1572634587.885197) can0 2E8#98000000611BA47F
(1572634587.886136) can0 0C8#FEC04F571E780000
(1572634587.887119) can0 128#C000000000003F3F
(1572634587.888061) can0 088#FF0B29562000FFFF
(1572634587.889012) can0 228#10A50181001BA47F
(1572634587.890011) can0 3B8#8000000000000000
(1572634587.891011) can0 448#0000FF0000000000
(1572634587.896403) can0 308#F000000000050000
(1572634587.897339) can0 1A8#001136750E1E0000
(1572634587.898308) can0 248#00800F990D939C00
(1572634587.899288) can0 400#0401000000010102
(1572634587.900248) can0 405#100000000053414A
(1572634587.901833) can0 028#7E00160000800000
(1572634587.902765) can0 0C8#FEC04F571E780000
(1572634587.903724) can0 108#DD00608205900000
(1572634587.904683) can0 168#B88003E36C0083FF
(1572634587.905634) can0 1D8#50000000CA057E92
(1572634587.906577) can0 388#8663C880001BA47F
(1572634587.907577) can0 048#FF8000003DFE03FF
(1572634587.908528) can0 088#FF0C29563000FFFF
(1572634587.917662) can0 0A8#FEF49105BF3E0000
(1572634587.918591) can0 0C8#F6C04F571E780000
(1572634587.919549) can0 268#EB08000004030800
(1572634587.920597) can0 2C8#CB00000000007F7F
(1572634587.925924) can0 228#10A50181001BA47F
(1572634587.926866) can0 068#7C004026BBD44204
(1572634587.927809) can0 088#FF0E29565000FFFF
(1572634587.928753) can0 368#DD88D72200000000
(1572634587.929720) can0 398#3427101800000000
(1572634587.933931) can0 0C8#FEC04F571E780000
(1572634587.934894) can0 208#C0020820810828AE
(1572634587.936718) can0 1A8#001136750E1E0000
(1572634587.937686) can0 1C8#800002081F022011
(1572634587.938649) can0 288#F000000000910091
(1572634587.939648) can0 338#0000000000000000
(1572634587.940631) can0 511#130200400C000000
(1572634587.946326) can0 308#F000000000050000
(1572634587.947614) can0 088#FF0F29566000FFFF
(1572634587.949902) can0 028#7E00160000800000
(1572634587.950845) can0 0C8#FFC04F571E780000
(1572634587.951832) can0 108#DF00608205900000
(1572634587.952787) can0 168#B88003E36C0083FF
(1572634587.953713) can0 188#289191961BA47F00
(1572634587.954672) can0 1D8#50000000CA057E93
(1572634587.955639) can0 348#78505F0042380000
(1572634587.956583) can0 388#8663C880001BA47F
(1572634587.957542) can0 248#00800F990D939C00
(1572634587.958501) can0 3C8#C0A9C61000000000
(1572634587.960356) can0 128#C000000000003F3F
(1572634587.965250) can0 2E8#D8000000611BA47F
(1572634587.966229) can0 048#FE0000003DFE03FF
(1572634587.967171) can0 0C8#FEC04F571E780000
(1572634587.968122) can0 088#FF1029567000FFFF
(1572634587.969073) can0 0A8#FEF09105BF3E0000
(1572634587.970024) can0 228#10A50181001BA47F
(1572634587.970982) can0 268#EB08000004030800
(1572634587.971954) can0 2A8#C000000401287000
(1572634587.976717) can0 068#7C004027BBD44204
(1572634587.977661) can0 1A8#001136750E1E0000
(1572634587.978628) can0 398#3427101800000000
(1572634587.979628) can0 3B8#8000000000000000
(1572634587.980610) can0 2C8#CB00000000007F7F
(1572634587.981553) can0 0C8#FEC04F571E780000
(1572634587.982537) can0 401#0400000200021200
(1572634587.983511) can0 402#0401000000010102
(1572634587.984487) can0 404#100000000053414A
(1572634587.985485) can0 448#0000FF0000000000
(1572634587.986821) can0 488#80FFFFFFFFFFFFFF
(1572634587.987765) can0 088#FF1229569000FFFF
(1572634587.989028) can0 208#C0020820810828AE
(1572634587.996508) can0 308#F000000000050000
(1572634587.997490) can0 028#7E00160000800000
(1572634587.998425) can0 0C8#F6C04F571E780000
(1572634587.999385) can0 108#DD00608205900000
(1572634588.000343) can0 168#B88003E26C0083FF
(1572634588.001300) can0 1D8#50000000CA057E93
(1572634588.002296) can0 328#E000000000000000
(1572634588.003259) can0 1C8#800002081F022011
(1572634588.004219) can0 368#DDC8D72200000000
(1572634588.005161) can0 388#8663C880001BA47F
(1572634588.006111) can0 228#10A50181001BA47F
(1572634588.007654) can0 088#FF132956A000FFFF
(1572634588.013489) can0 0C8#FEC04F571E780000
(1572634588.016725) can0 1A8#001136750E1E0000
(1572634588.017676) can0 0A8#FEF09105BF3E0000
(1572634588.018637) can0 248#00800F990D939C00
(1572634588.019595) can0 268#EB08000004030800
(1572634588.026109) can0 048#FE0000003DFE03FF
(1572634588.027051) can0 068#7C004026BBD44204
(1572634588.028002) can0 088#FF142956B000FFFF
(1572634588.028970) can0 398#3427101800000000
(1572634588.029914) can0 0C8#FEC04F571E780000
(1572634588.035348) can0 128#C000000000003F3F
(1572634588.040543) can0 2C8#CB00000000007F7F
(1572634588.044032) can0 208#C0020820810828AE
(1572634588.045077) can0 2E8#98000000611BA47F
(1572634588.046060) can0 028#7E00160000800000
(1572634588.046994) can0 0C8#FEC08F571D960000
(1572634588.047945) can0 088#FF162956D000FFFF
(1572634588.048903) can0 108#DD00608205900000
(1572634588.049862) can0 168#B88003E26C0083FF
(1572634588.050789) can0 188#289191961BA47F00
(1572634588.051740) can0 1D8#50000000CA057E94
(1572634588.052689) can0 228#10A50181001BA47F
(1572634588.053670) can0 308#F000000000050000
(1572634588.054630) can0 348#68505F0042380000
(1572634588.055573) can0 388#8663C880001BA47F
(1572634588.056532) can0 3C8#C0A9C61000000000
(1572634588.057491) can0 1A8#0011366A0E000000
(1572634588.058483) can0 513#010200400C000000
(1572634588.061721) can0 0C8#FFC08F571D960000
(1572634588.067621) can0 1C8#800002081F022011
(1572634588.068580) can0 088#FF172956E000FFFF
(1572634588.069524) can0 0A8#FEF09105BF3E0000
(1572634588.070482) can0 268#EB08000004030800
(1572634588.071450) can0 2A8#C000000401287000
(1572634588.072453) can0 3B8#8000000000000000
(1572634588.073448) can0 448#0000FF0000000000
(1572634588.076720) can0 068#7C004025BBD44204
(1572634588.077678) can0 248#00800F990D939C00
(1572634588.078613) can0 0C8#F6C08F571D960000
(1572634588.079573) can0 368#DDC8D72200000000
(1572634588.080540) can0 398#3427101800000000
(1572634588.085900) can0 228#10A50181001BA47F
(1572634588.086882) can0 048#FE0000003DFE03FF
(1572634588.087833) can0 088#FF0929560000FFFF
(1572634588.088832) can0 338#0000000000000000
(1572634588.093840) can0 028#7E00160000800000
(1572634588.094773) can0 0C8#FEC08F571D960000
(1572634588.095733) can0 108#DD00608205900000
(1572634588.096691) can0 168#B88003E26C0083FF
(1572634588.097651) can0 1A8#0011366A0E000000
(1572634588.098601) can0 1D8#50000000CA057E94
(1572634588.099568) can0 208#C0020820810828AE
(1572634588.100532) can0 288#F000000000910091
(1572634588.101514) can0 2C8#CB00000000007F7F
(1572634588.102498) can0 308#F000000000050000
(1572634588.103440) can0 388#8663C880001BA47F
(1572634588.107647) can0 088#FF0B29562000FFFF
(1572634588.109790) can0 0C8#FEC08F571D960000
(1572634588.110774) can0 128#C000000000003F3F
(1572634588.117654) can0 0A8#FEF09105BF3E0000
(1572634588.118665) can0 268#EB08000004030800
(1572634588.124954) can0 2E8#98000000611BA47F
(1572634588.125884) can0 0C8#FEC08F571D960000
(1572634588.126829) can0 068#7C004027BBD44204
(1572634588.127778) can0 088#FF0C29563000FFFF
(1572634588.128721) can0 228#10E50181001BA47F
(1572634588.129680) can0 398#34270F1800000000
(1572634588.132822) can0 1C8#800002081F022011
(1572634588.136785) can0 1A8#001136640E000000
(1572634588.137833) can0 248#00800F990D939C00
(1572634588.141978) can0 028#7E00160000800000
(1572634588.142911) can0 0C8#FEC08F571D960000
(1572634588.143893) can0 108#DF00608205900000
(1572634588.144853) can0 168#B88003E26C0083FF
(1572634588.145781) can0 188#289191961BA47F00
(1572634588.146769) can0 048#FE0000003DFE03FF
(1572634588.147720) can0 088#FF0D29564000FFFF
(1572634588.148672) can0 1D8#50000000CA057E94
(1572634588.149644) can0 308#F000000000050000
(1572634588.150630) can0 328#E000000000000000
(1572634588.151649) can0 348#78505F0042380000
(1572634588.152557) can0 368#DDC8D72200000000
(1572634588.153499) can0 388#8663C880001BA47F
(1572634588.154466) can0 208#C0020820810828AE
(1572634588.155425) can0 3C8#C0A9C61000000000
(1572634588.156416) can0 400#0502010000020000
(1572634588.157360) can0 405#0169CA057E944204
(1572634588.158295) can0 0C8#F7C08F571D960000
(1572634588.159294) can0 3B8#8000000000000000
(1572634588.160293) can0 448#0000FF0000000000
(1572634588.161276) can0 2C8#CB00000000007F7F
(1572634588.165734) can0 228#10A50181001BA47F
(1572634588.167648) can0 088#FF0F29566000FFFF
(1572634588.168600) can0 0A8#FEF09105BF3E0000
(1572634588.169559) can0 268#EB08000004030800
(1572634588.170526) can0 2A8#C000000401287000
(1572634588.173550) can0 0C8#FEC08F571D960000
(1572634588.174532) can0 501#030200400C000000
(1572634588.176757) can0 068#7C004026BBD44204
(1572634588.177723) can0 1A8#001136640E000000
(1572634588.178683) can0 398#34270F1800000000
(1572634588.185380) can0 128#C000000000003F3F
(1572634588.187648) can0 088#FF1029567000FFFF
(1572634588.189608) can0 028#7E00160000800000
(1572634588.190543) can0 0C8#FEC08F571D960000
(1572634588.191510) can0 108#DD0060FE05900000
(1572634588.192472) can0 168#B88003E26C0083FF
(1572634588.193436) can0 1D8#50000000CA057E95
(1572634588.194379) can0 388#8663C880001BA47F
(1572634588.197043) can0 308#F000000000050000
(1572634588.198011) can0 1C8#800002081F022011
(1572634588.198971) can0 248#00800F990D939C00
(1572634588.199978) can0 4D8#0000000000000000
(1572634588.204869) can0 2E8#98000000611BA47F
(1572634588.205803) can0 0C8#FEC08F571D960000
(1572634588.206802) can0 048#FF8000003DFE03FF
(1572634588.207754) can0 088#FF1129568000FFFF
(1572634588.208705) can0 228#10A50181001BA47F
(1572634588.209673) can0 208#C0020820810828AE
(1572634588.216801) can0 1A8#0011365F0E000000
(1572634588.217746) can0 0A8#FEF09105BF3E0000
(1572634588.218719) can0 268#EB08000004030800
(1572634588.220585) can0 2C8#CB00000000007F7F
(1572634588.221714) can0 0C8#FEC08F571D960000
(1572634588.226776) can0 068#7C004027BBD44204
(1572634588.227719) can0 088#FF132956A000FFFF
(1572634588.228678) can0 368#DDC8D72200000000
(1572634588.229637) can0 398#34270F1800000000
(1572634588.230613) can0 401#0500082200000008
(1572634588.231627) can0 402#0502010000020000
(1572634588.232540) can0 404#0169CA057E944204
(1572634588.237354) can0 338#0000000000000000
(1572634588.238337) can0 028#7E00160000800000
(1572634588.239272) can0 0C8#F6C08F571D960000
(1572634588.240238) can0 108#DD0060FE05900000
(1572634588.241198) can0 168#B88003E36C0083FF
(1572634588.242130) can0 188#289191961BA47F00
(1572634588.243092) can0 1D8#50000000CA057E95
(1572634588.244052) can0 348#68505F0042380000
(1572634588.244995) can0 388#8663C880001BA47F
(1572634588.245945) can0 228#10A50181001BA47F
(1572634588.246904) can0 3C8#C0A9C61000000000
(1572634588.247856) can0 088#FF142956B000FFFF
(1572634588.248839) can0 308#F000000000050000
(1572634588.249838) can0 3B8#8000000000000000
(1572634588.250837) can0 448#0000FF0000000000
(1572634588.253839) can0 0C8#FFC08F571D960000
(1572634588.256804) can0 1A8#0011365F0E000000
(1572634588.257972) can0 248#00800F990D939C00
(1572634588.260347) can0 128#C000000000003F3F
(1572634588.261311) can0 288#F000000000910091
(1572634588.262920) can0 1C8#800002081F022011
(1572634588.264055) can0 208#C0020820810828AE
(1572634588.266614) can0 048#FE0000003DFE03FF
(1572634588.267606) can0 488#80FFFFFFFFFFFFFF
(1572634588.268557) can0 088#FF152956C000FFFF
(1572634588.269508) can0 0A8#FEF09105BF3E0000
(1572634588.270443) can0 0C8#FEC08F571D960000
(1572634588.271403) can0 268#EB08000004030800
(1572634588.272373) can0 2A8#C000000401287000
(1572634588.276818) can0 068#7C004027BBD44204
(1572634588.277777) can0 398#34270E1800000000
(1572634588.280568) can0 2C8#CB00000000007F7F
(1572634588.281551) can0 503#040200400C000000
(1572634588.284797) can0 2E8#98000000611BA47F
(1572634588.285810) can0 028#7E00160000800000
(1572634588.286745) can0 0C8#FEC08F571D960000
(1572634588.287689) can0 108#DD0060D905940000
(1572634588.288639) can0 088#FF172956E000FFFF
(1572634588.289599) can0 168#B88003E36C0083FF
(1572634588.290549) can0 1D8#50000000CA057E96
(1572634588.291501) can0 228#10A50181001BA47F
(1572634588.292445) can0 388#8663C880001BA47F
(1572634588.296781) can0 1A8#0011365C0E000000
(1572634588.297763) can0 308#F000000000050000
(1572634588.298755) can0 328#E000000000000000
(1572634588.301699) can0 0C8#FEC08F571D960000
(1572634588.302657) can0 368#DDC8D72200000000
(1572634588.307681) can0 088#FF0929560000FFFF
(1572634588.317685) can0 0A8#FEF09105BF3E0000
(1572634588.318617) can0 0C8#F6C08F571D960000
(1572634588.319584) can0 208#C0020820810828AE
(1572634588.320543) can0 248#00800F990D939C00
(1572634588.321502) can0 268#EB08000004030800
(1572634588.325823) can0 228#10A50181001BA47F
(1572634588.326802) can0 048#FE0000003DFE03FF
(1572634588.327746) can0 068#7C004027BBD44204
(1572634588.328688) can0 088#FF0A29561000FFFF
(1572634588.329655) can0 1C8#800002081F022011
(1572634588.330614) can0 398#34270E1800000000
(1572634588.333929) can0 028#7E00160000800000
(1572634588.334868) can0 0C8#FEC08F581D960000
(1572634588.335825) can0 108#DF00619305940000
(1572634588.336809) can0 128#C000000000003F3F
(1572634588.337768) can0 168#B88003E26C0083FF
(1572634588.338695) can0 188#289191961BA47F00
(1572634588.339654) can0 1A8#0011365C0E000000
(1572634588.340605) can0 1D8#50000000CA057E96
(1572634588.341620) can0 2C8#CB00000000007F7F
(1572634588.342553) can0 348#78505F0042380000
(1572634588.343495) can0 388#8663C880001BA47F
(1572634588.344492) can0 3B8#8000000000000000
(1572634588.345451) can0 3C8#C0A9C61000000000
(1572634588.346451) can0 448#0000FF0000000000
(1572634588.347433) can0 308#F000000000050000
(1572634588.348384) can0 088#FF0C29563000FFFF
(1572634588.349792) can0 0C8#FFC08F581D960000
(1572634588.364708) can0 2E8#98000000611BA47F
(1572634588.365638) can0 0C8#FEC08F591D960000
(1572634588.366589) can0 228#10A50181001BA47F
(1572634588.367708) can0 088#FF0D29564000FFFF
(1572634588.368659) can0 0A8#FEF09105BF3E0000
(1572634588.369619) can0 268#EB08000004030800
(1572634588.370586) can0 2A8#C000000401287000
(1572634588.374045) can0 208#C0020820810828AE
(1572634588.376793) can0 068#7C004028BBD44204
(1572634588.377744) can0 1A8#0011365B0E000000
(1572634588.378703) can0 248#00800F990D939C00
(1572634588.379662) can0 368#DDC8D72200000000
(1572634588.380638) can0 398#34270D1800000000
(1572634588.381635) can0 028#7E00160000800000
(1572634588.382557) can0 0C8#FEC08F591D960000
(1572634588.383507) can0 108#DD00629C05940000
(1572634588.384466) can0 168#B88003E26C0083FF
(1572634588.385434) can0 1D8#D0000000CA057E97
(1572634588.386370) can0 388#F663C880001BA47F
(1572634588.387352) can0 048#FE0000003DFE03FF
(1572634588.388295) can0 088#FF0E29565000FFFF
(1572634588.389294) can0 338#0000000000000000
(1572634588.390940) can0 504#050200400C000000
(1572634588.393200) can0 1C8#800002081F022011
(1572634588.396844) can0 400#0600030002000001
(1572634588.397808) can0 0C8#F6C08F591D960000
(1572634588.398747) can0 308#F000000000050000
(1572634588.399679) can0 405#023D36002802C3A6
(1572634588.400657) can0 2C8#CB00000000007F7F
(1572634588.405784) can0 228#10E50181001BA47F
(1572634588.407693) can0 088#FF1029567000FFFF
(1572634588.410372) can0 128#C000000000003F3F
(1572634588.413855) can0 0C8#FEC08F5A1D960000
(1572634588.416804) can0 1A8#0011365B0E000000
(1572634588.417756) can0 0A8#FEF09105BF3E0000
(1572634588.418731) can0 268#EB08000004030800
(1572634588.422333) can0 288#F000000000910091
(1572634588.426787) can0 068#7C004029BBD44204
(1572634588.427738) can0 088#FF1129568000FFFF
(1572634588.428712) can0 398#34270D1800000000
(1572634588.429679) can0 208#C0020820810828AE
(1572634588.430662) can0 028#7E00160000800000
(1572634588.431635) can0 0C8#FEC08F5A1D960000
(1572634588.432533) can0 108#DD0062E901940000
(1572634588.433507) can0 168#B88003E26C0083FF
(1572634588.434417) can0 188#389191961BA47F00
(1572634588.435391) can0 1D8#50000000CA057E97
(1572634588.436356) can0 348#78505F0042380000
(1572634588.437297) can0 388#8663C880001BA47F
(1572634588.438244) can0 248#00800F990D939C00
(1572634588.439243) can0 3B8#8000000000000000
(1572634588.440209) can0 3C8#C029C61000000000
(1572634588.441209) can0 448#0000FF0000000000
(1572634588.444742) can0 2E8#98000000611BA47F
(1572634588.445723) can0 0C8#FEC08F5B1D960000
(1572634588.446707) can0 048#FE0000003DFE03FF
(1572634588.447657) can0 228#10A50181001BA47F
(1572634588.448600) can0 088#FF1229569000FFFF
(1572634588.449584) can0 308#F000000000050000
(1572634588.450575) can0 328#E000000000000000
(1572634588.451882) can0 368#DDC8D72200000000
(1572634588.456791) can0 1A8#0011365B0E000000
(1572634588.458326) can0 1C8#800002081F022011
(1572634588.460598) can0 2C8#CB00000000007F7F
(1572634588.461711) can0 0C8#FFCC8F5B1D960000
(1572634588.467706) can0 088#FF110659B000FFFF
(1572634588.468652) can0 0A8#FEF09105BF3E0000
(1572634588.469611) can0 268#EB08000004030800
(1572634588.470578) can0 2A8#C000000401287000
(1572634588.476815) can0 068#7C00402ABBD44204
(1572634588.477794) can0 028#7E00160000800000
(1572634588.478728) can0 0C8#F6CC8F5C1D960000
(1572634588.479671) can0 108#DD00633B01900000
(1572634588.480630) can0 168#B88003E26C0083FF
(1572634588.481581) can0 1D8#50000000CA057E98
(1572634588.482525) can0 388#8663C880001BA47F
(1572634588.483515) can0 397#0000000000000409
(1572634588.484482) can0 208#C0020820810828AE
(1572634588.485465) can0 128#C000000000003F3F
(1572634588.486415) can0 228#10A50181001BA47F
(1572634588.487416) can0 1E8#0000000000000000
(1572634588.488375) can0 088#FF120659C000FFFF
(1572634588.489358) can0 396#0000000000008209
(1572634588.490326) can0 398#34270C1800000000
(1572634588.491268) can0 401#060061026B227000
(1572634588.492247) can0 402#0600030002000001
(1572634588.493179) can0 404#023D36002802C3A6
(1572634588.494122) can0 0C8#FECC8F5C1D960000
(1572634588.496818) can0 1A8#0011365B0E000000
(1572634588.497801) can0 308#F000000000050000
(1572634588.498762) can0 248#00800F990D939C00
(1572634588.499743) can0 505#080200400C000000
(1572634588.506552) can0 048#FF8000003D6A03FF
(1572634588.507702) can0 088#FF130659D000FFFF
(1572634588.509822) can0 0C8#FECC8F5C1D960000
(1572634588.517689) can0 0A8#FEF09105BF3E0000
(1572634588.518645) can0 268#EB08000004030800
(1572634588.519645) can0 3B8#8000000000000000
(1572634588.520627) can0 2C8#CB00000000007F7F
(1572634588.521663) can0 448#0000FF0000000000
(1572634588.523451) can0 1C8#800002081F022011
(1572634588.524609) can0 2E8#D8000000611BA47F
(1572634588.525800) can0 028#7E00160000800000
(1572634588.526743) can0 0C8#FECC8F5D1D960000
(1572634588.527686) can0 068#FC00402DBBD44204
(1572634588.528660) can0 088#FF0606590000FFFF
(1572634588.529611) can0 108#DD00636E01900000
(1572634588.530570) can0 168#B88003E26C0083FF
(1572634588.531497) can0 188#289191961BA47F00
(1572634588.532452) can0 1D8#50000000CA057E98
(1572634588.533399) can0 228#10A50181001BA47F
(1572634588.534365) can0 348#78505F0042380000
(1572634588.535309) can0 368#DD88D72200000000
(1572634588.536252) can0 388#8663C880001BA47F
(1572634588.537203) can0 1A8#0011365B0E000000
(1572634588.538196) can0 1E8#3400000000000000
(1572634588.539162) can0 208#C0020820810828AE
(1572634588.540160) can0 338#0000000000000000
(1572634588.541128) can0 398#34270C1800000000
(1572634588.542073) can0 0C8#FECC8F5D1D960000
(1572634588.543038) can0 3C8#C029C61000000000
(1572634588.546466) can0 308#F000000000050028
(1572634588.547453) can0 488#80FFFFFFFFFFFFFF
(1572634588.548428) can0 088#FF0706591000FFFF
(1572634588.557445) can0 0C8#F7CC8F5D1D960000
(1572634588.558500) can0 248#00800F990D939C00
(1572634588.560355) can0 128#C000000000003F3F
(1572634588.565740) can0 228#10A50181001BA47F
(1572634588.566710) can0 048#FE0000003D6A03FF
(1572634588.567726) can0 088#FF0806592000FFFF
(1572634588.568678) can0 0A8#FEF09105BF3E0000
(1572634588.569640) can0 268#EB08000004030800
(1572634588.570623) can0 2A8#C000000401287000
(1572634588.573663) can0 028#7E00160000800000
(1572634588.574602) can0 0C8#FECC8F5D1D960000
(1572634588.575530) can0 108#DF64637501900000
(1572634588.576485) can0 168#B88003E26C0083FF
(1572634588.577428) can0 068#FC00402DBBD44204
(1572634588.578381) can0 1A8#0011365B0E000000
(1572634588.579330) can0 1D8#50000000CA057E99
(1572634588.580272) can0 388#8663C880001BA47F
(1572634588.581258) can0 2C8#CB00000000007F7F
(1572634588.582248) can0 397#0000000000000409
(1572634588.583225) can0 398#34270C1800000000
(1572634588.584905) can0 288#F000000000910091
(1572634588.585888) can0 396#0000000000008209
(1572634588.587355) can0 1E8#3400000000000000
(1572634588.588317) can0 088#FF0A06594000FFFF
(1572634588.589274) can0 1C8#800002081F022011
(1572634588.590217) can0 0C8#FECC8F5D1D960000
(1572634588.594081) can0 208#C0020820810828AE
(1572634588.596944) can0 308#F000000000050028
(1572634588.597934) can0 328#E000000000000000
(1572634588.601838) can0 368#DDC8D72200000000
(1572634588.604471) can0 2E8#98000000611BA47F
(1572634588.605742) can0 228#10A50181001BA47F
(1572634588.606686) can0 0C8#FECC8F5D1D960000
(1572634588.607748) can0 088#FF0B06595000FFFF
(1572634588.608733) can0 508#0B0200400C000000
(1572634588.609732) can0 3B8#8000000000000000
(1572634588.610731) can0 448#0000FF0000000000
(1572634588.616822) can0 1A8#0011365B0E000000
(1572634588.617771) can0 0A8#FEF09105BF3E0000
(1572634588.618731) can0 248#00800F990D939C00
(1572634588.619692) can0 268#EB08000004030800
(1572634588.621771) can0 028#7E00160000800000
(1572634588.622713) can0 0C8#FECC8F5D1D960000
(1572634588.623649) can0 108#DD64635901900000
(1572634588.624607) can0 168#B88003E26C0083FF
(1572634588.625534) can0 188#289191961BA47F00
(1572634588.626485) can0 1D8#50000000CA057E99
(1572634588.627468) can0 048#FE0010003D6A03FF
(1572634588.628411) can0 068#FC00402DBBD44204
(1572634588.629384) can0 088#FF0C06596000FFFF
(1572634588.630349) can0 348#78505F0042380000
(1572634588.631316) can0 378#0000000000132E35
(1572634588.632246) can0 388#8663C880001BA47F
(1572634588.633205) can0 398#34270B1800000000
(1572634588.634172) can0 3C8#C029C61000000000
(1572634588.635418) can0 128#C000000000003F3F
(1572634588.637486) can0 1E8#3400000000000000
(1572634588.638405) can0 0C8#F6CC8F5D1D960000
(1572634588.640611) can0 2C8#CB00000000007F7F
(1572634588.645587) can0 228#10A50181001BA47F
(1572634588.646907) can0 400#0700000000020000
(1572634588.647868) can0 088#FF0E06598001FFFF
(1572634588.648831) can0 308#F000000000050028
(1572634588.649797) can0 208#C0020820810828AE
(1572634588.650790) can0 405#0000000000000000
(1572634588.653623) can0 1C8#800002081F022011
(1572634588.654565) can0 0C8#FFCC8F5D1D960000
(1572634588.656869) can0 1A8#0011365F0E000000
(1572634588.667718) can0 088#FF0F06599001FFFF
(1572634588.668668) can0 0A8#FEF09105BF3E0000
(1572634588.669627) can0 268#EB08000004030800
(1572634588.670609) can0 028#7E00160000800000
(1572634588.671551) can0 0C8#FECC8F5C1D960000
(1572634588.672496) can0 108#DD64635001900000
(1572634588.673453) can0 168#B88003E26C0083FF
(1572634588.674412) can0 1D8#50000000CA057E9A
(1572634588.675379) can0 2A8#C000000401287000
(1572634588.676322) can0 388#8663C880001BA47F
(1572634588.677265) can0 068#FC00402DBBD44204
(1572634588.678225) can0 368#DDC8D72200000000
(1572634588.679184) can0 248#00800F990D939C00
(1572634588.680144) can0 398#34270B1800000000
(1572634588.681996) can0 397#0000000000000409
(1572634588.684396) can0 2E8#98000000611BA47F
(1572634588.685380) can0 396#0000000000008209
(1572634588.686314) can0 0C8#FECC8F5B1D960000
(1572634588.687297) can0 048#FE0010003D6A03FF
(1572634588.688248) can0 088#FF100659A001FFFF
(1572634588.689240) can0 1E8#3400000000000000
(1572634588.690191) can0 228#10A50181001BA47F
(1572634588.691190) can0 338#0000000000000000
(1572634588.696735) can0 308#F000000000050028
(1572634588.697700) can0 1A8#0011365F0E000000
(1572634588.699060) can0 3B8#8000000000000000
(1572634588.700059) can0 448#0000FF0000000000
(1572634588.701043) can0 2C8#CB00000000007F7F
(1572634588.701980) can0 0C8#FECC8F581D960000
(1572634588.704065) can0 208#C0020820810828AE
(1572634588.707705) can0 088#FF120659C001FFFF
(1572634588.710416) can0 128#C000000000003F3F
(1572634588.711391) can0 50B#0F1200000B000000
(1572634588.714074) can0 50C#0F0100400C000000
(1572634588.717739) can0 028#7E00160000800000
(1572634588.718685) can0 0A8#FEF09105BF3E0000
(1572634588.719624) can0 0C8#F6CC8F561D960000
(1572634588.720561) can0 108#DD64635201900000
(1572634588.721520) can0 168#B88003E26C0083FF
(1572634588.722447) can0 188#289191961BA47F00
(1572634588.723416) can0 1C8#800002081F022011
(1572634588.724374) can0 1D8#50000000CA057E9A
(1572634588.725332) can0 268#EB08000004030800
(1572634588.726275) can0 228#10E50181001BA47F
(1572634588.727218) can0 068#FC00402DBBD44204
(1572634588.728170) can0 088#FF130659D001FFFF
(1572634588.729113) can0 348#78505F0142380000
(1572634588.730056) can0 388#8663C880001BA47F
(1572634588.731015) can0 398#34270A1800000000
(1572634588.731987) can0 3C8#C029C61000000000
(1572634588.732934) can0 401#0700FB002340051E
(1572634588.733868) can0 0C8#FECC8F541D960000
(1572634588.734852) can0 402#0700000000020000
(1572634588.735868) can0 404#0000000000000000
(1572634588.736867) can0 1A8#001136630E000000
(1572634588.737861) can0 1E8#3400000000000000
