(1572541998.267540) can0 088#DF09041B5000FFFF
(1572541998.268465) can0 0A8#78F49105BF3F0000
(1572541998.269421) can0 268#A308000004020900
(1572541998.270387) can0 2A8#C000000001287000
(1572541998.272354) can0 128#0000000000003F3F
(1572541998.273321) can0 068#FC004030BDD04204
(1572541998.274257) can0 1A8#001135790E770000
(1572541998.275223) can0 1C8#800002081F022011
(1572541998.276245) can0 208#0002000000000000
(1572541998.277196) can0 248#008003CB528EF600
(1572541998.278138) can0 368#DDC8D72600000000
(1572541998.279097) can0 398#3327101600000000
(1572541998.280096) can0 3B8#8000000000000000
(1572541998.281086) can0 401#0F00000000000000
(1572541998.282068) can0 402#0F02000000000000
(1572541998.283058) can0 400#1000000002010000
(1572541998.284076) can0 404#0000000000000000
(1572541998.285080) can0 028#0000060000000000
(1572541998.286086) can0 0C8#0000000000000000
(1572541998.287085) can0 108#0000000000000000
(1572541998.288053) can0 088#DF0B041B7000FFFF
(1572541998.289051) can0 168#0000000000000000
(1572541998.290018) can0 188#000000001BA47F00
(1572541998.290985) can0 1D8#00000000CA052745
(1572541998.291983) can0 348#0007000002000000
(1572541998.292958) can0 378#0000000000130926
(1572541998.293929) can0 068#FC004030BDD04204
(1572541998.294861) can0 1A8#001135790E770000
(1572541998.295804) can0 368#DDC8D72600000000
(1572541998.296762) can0 388#0000008C6F1BA47F
(1572541998.297721) can0 398#3327101600000000
(1572541998.298672) can0 3C8#0029CC1093000007
(1572541998.299639) can0 401#1000000019648D19
(1572541998.300637) can0 405#0000000000000000
(1572541998.301644) can0 0C8#0000000000000000
(1572541998.302634) can0 402#1000000002010000
(1572541998.303653) can0 404#0000000000000000
(1572541998.304647) can0 448#0000FF0000000000
(1572541998.305653) can0 4D8#0000000000000000
(1572541998.306642) can0 501#0101000000000000
(1572541998.307625) can0 088#DF0C041B8000FFFF
(1572541998.308615) can0 508#0801000008000000
(1572541998.309588) can0 50B#0B0100000B000000
(1572541998.310570) can0 50C#0C0100000C000000
(1572541998.311519) can0 511#110100001100001A
(1572541998.312479) can0 513#1301000013000003
(1572541998.313472) can0 513#1301000013000003
(1572541998.316462) can0 0C8#0000000000000000
(1572541998.317533) can0 0A8#78F49105BF3F0000
(1572541998.318492) can0 268#A308000004020900
(1572541998.319482) can0 2C8#0000000000007F7F
(1572541998.320457) can0 50F#0F01000000000000
(1572541998.322505) can0 3E8#4000B15823748200
(1572541998.323509) can0 4A8#0000000000000000
(1572541998.327520) can0 088#FF0D041B9000FFFF
(1572541998.331113) can0 208#0002000000000000
(1572541998.332328) can0 028#1000060000000000
(1572541998.333334) can0 0C8#0000000000000000
(1572541998.334334) can0 108#0000000000000000
(1572541998.335333) can0 168#0000030000000000
(1572541998.336267) can0 1A8#001135790E770000
(1572541998.337217) can0 1D8#10000000CA052746
(1572541998.338170) can0 248#008003CB528EF600
(1572541998.339153) can0 1C8#000002081F022011
(1572541998.340103) can0 388#8000C08C6F1BA47F
(1572541998.341101) can0 0E8#0000000000000000
(1572541998.342100) can0 4A8#0000000000000000
(1572541998.343066) can0 2E8#A400000270000000
(1572541998.344030) can0 068#FC00402FBDD04204
(1572541998.344968) can0 228#71C01080801BA47F
(1572541998.345974) can0 048#00000000000003FF
(1572541998.346976) can0 308#0000000000000000
(1572541998.347934) can0 088#FF0F041BB000FFFF
(1572541998.348940) can0 0C8#0000000000000000
(1572541998.349938) can0 0E8#0000000000000000
(1572541998.350921) can0 128#C000000000003F3F
(1572541998.351936) can0 328#0000000000000000
(1572541998.352894) can0 398#3327101600000000
(1572541998.353893) can0 4A8#0000000000000000
(1572541998.354890) can0 4A8#0000000000000000
(1572541998.355871) can0 503#0301000000000000
(1572541998.356871) can0 0E8#0000000000000000
(1572541998.357861) can0 504#0401000000000000
(1572541998.358851) can0 505#0501000000000000
(1572541998.362563) can0 4A8#0000000000000000
(1572541998.364581) can0 0C8#0000000000000000
(1572541998.365575) can0 0E8#0000000000000000
(1572541998.366575) can0 3B8#8000000000000000
(1572541998.367574) can0 448#0000FF0000000000
(1572541998.368532) can0 088#FF10041BC000FFFF
(1572541998.369501) can0 0A8#FEF41105BF3F0000
(1572541998.370467) can0 268#EB08000004020800
(1572541998.371434) can0 2A8#C000000001287000
(1572541998.372393) can0 368#DDC8D72200000000
(1572541998.373413) can0 0E8#0000000000000000
(1572541998.374328) can0 1A8#001135790E770000
(1572541998.375326) can0 4A8#0000000000000000
(1572541998.376325) can0 508#0B02000000000000
(1572541998.377484) can0 50B#0C02000000000000
(1572541998.378460) can0 511#1302000000000000
(1572541998.379443) can0 2C8#CB00000000007F7F
(1572541998.380450) can0 028#1000060000000000
(1572541998.381457) can0 0C8#0000000000000000
(1572541998.382456) can0 0E8#0000000000000000
(1572541998.383490) can0 108#0000000000000000
(1572541998.384455) can0 168#0000030000000000
(1572541998.385413) can0 188#600000001BA47F00
(1572541998.386365) can0 1D8#10000000CA052746
(1572541998.387387) can0 208#0002000000000000
(1572541998.388347) can0 088#FF11041BD000FFFF
(1572541998.389354) can0 0E8#0000000000000000
(1572541998.390292) can0 228#50C11081801BA47F
(1572541998.391255) can0 348#6810000042000000
(1572541998.392206) can0 388#8000C08C6F1BA47F
(1572541998.393165) can0 068#FC00402FBDD04204
(1572541998.394129) can0 398#3327101600000000
(1572541998.395077) can0 248#008003CB528EF600
(1572541998.396060) can0 308#F000000000050000
(1572541998.397067) can0 0C8#0000000000000000
(1572541998.398066) can0 0E8#0000000000000000
(1572541998.399016) can0 3C8#8029CC1093000007
(1572541998.400015) can0 4A8#0000000000000000
(1572541998.401014) can0 4A8#0000000000000000
(1572541998.402581) can0 4A8#0000000000000000
(1572541998.403698) can0 1C8#800002081F022011
(1572541998.404685) can0 048#FF80000000FE03FF
(1572541998.405683) can0 0E8#0000000000000000
(1572541998.407562) can0 088#FF04041B0000FFFF
(1572541998.412314) can0 0C8#0000000000000000
(1572541998.413313) can0 0E8#0000000000000000
(1572541998.414248) can0 1A8#001135790E770000
(1572541998.415246) can0 4A8#0000000000000000
(1572541998.417542) can0 0A8#FEF41105BF3F0000
(1572541998.418508) can0 268#EB08000004020800
(1572541998.420300) can0 0E8#0000000000000000
(1572541998.422443) can0 128#C000000000003F3F
(1572541998.423408) can0 228#10A11081001BA47F
(1572541998.424345) can0 2E8#9400000261000000
(1572541998.425344) can0 4A8#0000000000000000
(1572541998.427551) can0 088#FF05041B1000FFFF
(1572541998.428558) can0 028#1000060000000000
(1572541998.429565) can0 0C8#0000000000000000
(1572541998.430564) can0 0E8#0000000000000000
(1572541998.431563) can0 108#0000000000000000
(1572541998.432562) can0 168#0000030000000000
(1572541998.433525) can0 1D8#10000000CA052747
(1572541998.434471) can0 388#8000C08C6F1BA47F
(1572541998.435470) can0 4A8#0000000000000000
(1572541998.436469) can0 0E8#0000000000000000
(1572541998.439180) can0 2C8#CB00000000007F7F
(1572541998.441107) can0 208#0002000000000000
(1572541998.442595) can0 4A8#0000000000000000
(1572541998.443556) can0 068#FC00402FBDD04204
(1572541998.444561) can0 0C8#0000000000000000
(1572541998.445560) can0 0E8#0000000000000000
(1572541998.446543) can0 308#F000000000050000
(1572541998.447494) can0 368#DDC8D72000000000
(1572541998.448470) can0 088#FF06041B2000FFFF
(1572541998.449430) can0 398#3327101600000000
(1572541998.452372) can0 0E8#0000000000000000
(1572541998.453308) can0 1A8#001135790E770000
(1572541998.454300) can0 488#80FFFFFFFFFFFFFF
(1572541998.455242) can0 248#C0807BE1803D2E00
(1572541998.456241) can0 3B8#8000000000000000
(1572541998.457240) can0 448#0000FF0000000000
(1572541998.458247) can0 4A8#0000000000000000
(1572541998.460432) can0 0C8#0000000000000000
(1572541998.461430) can0 0E8#0000000000000000
(1572541998.462590) can0 4A8#017F090000000000
(1572541998.463545) can0 228#30A50181001BA47F
(1572541998.465477) can0 048#FE00000037FE03FF
(1572541998.467555) can0 088#FF08041B4000FFFF
(1572541998.468507) can0 0A8#FEF49105BF3F0000
(1572541998.469505) can0 0E8#0000000000000000
(1572541998.470473) can0 1C8#840002081F022011
(1572541998.471433) can0 268#EB08000004420800
(1572541998.472400) can0 2A8#C000000001287000
(1572541998.473409) can0 4A8#017F090000000000
(1572541998.476351) can0 028#1000060000000000
(1572541998.477358) can0 0C8#0000000000000000
(1572541998.478300) can0 0E8#020009438E749FFC
(1572541998.479299) can0 108#0000000000000000
(1572541998.480298) can0 168#0000030000000000
(1572541998.481257) can0 188#600000001BA47F00
(1572541998.482216) can0 1D8#10000000CA052747
(1572541998.483192) can0 348#6810000042000000
(1572541998.484145) can0 388#8000C08C6F1BA47F
(1572541998.485083) can0 0E8#020009438E749FFC
(1572541998.486034) can0 3C8#8029CC1093000007
(1572541998.487025) can0 4A8#017F090000000000
(1572541998.487991) can0 088#FF09041B5000FFFF
(1572541998.488975) can0 50B#0C02000000000000
(1572541998.492551) can0 0C8#0000000000000000
(1572541998.493514) can0 068#FC00402FBDD04204
(1572541998.494452) can0 0E8#020009438E749FFC
(1572541998.495387) can0 1A8#001135790E770000
(1572541998.496409) can0 208#0002000000000000
(1572541998.497392) can0 308#F000000000050000
(1572541998.498374) can0 128#C000000000003F3F
(1572541998.499357) can0 2C8#CB00000000007F7F
(1572541998.500347) can0 328#E000000000000000
(1572541998.501289) can0 0E8#020009438E749FFC
(1572541998.502248) can0 398#3327101600000000
(1572541998.503214) can0 2E8#9800000061000000
(1572541998.504169) can0 228#10A50181001BA47F
(1572541998.505093) can0 4A8#0365616C4D160000
(1572541998.506020) can0 4A8#0365616C4D160000
(1572541998.507547) can0 088#FF0A041B6000FFFF
(1572541998.508554) can0 0C8#0000000000000000
(1572541998.509497) can0 0E8#020009438E749FFC
(1572541998.512521) can0 4A8#0365616C4D160000
(1572541998.513894) can0 248#00807BE1803D2E00
(1572541998.516313) can0 0E8#04817F0000000000
(1572541998.517561) can0 0A8#FEF49105BF3F0000
(1572541998.518520) can0 268#EB08000004420800
(1572541998.519480) can0 368#DDC8D72200000000
(1572541998.522616) can0 4A8#0500000000000000
(1572541998.524322) can0 028#1000060000000000
(1572541998.525317) can0 048#FE00000037FE03FF
(1572541998.526324) can0 0C8#0000000000000000
(1572541998.527307) can0 0E8#04817F0000000000
(1572541998.528282) can0 088#FF0C041B8000FFFF
(1572541998.529275) can0 108#0000000000000000
(1572541998.530273) can0 168#0000030000000000
(1572541998.531223) can0 1D8#10000000CA052748
(1572541998.532174) can0 388#8000C08C6F1BA47F
(1572541998.533157) can0 0E8#04817F0000000000
(1572541998.534097) can0 1A8#001135790E770000
(1572541998.535060) can0 1C8#800002081F022011
(1572541998.536052) can0 400#1103000000000004
(1572541998.536979) can0 405#0164CA0527474204
(1572541998.537970) can0 4A8#0500000000000000
(1572541998.540329) can0 0C8#0000000000000000
(1572541998.542583) can0 4A8#0500000000000000
(1572541998.543546) can0 068#FC00402FBDD04204
(1572541998.544493) can0 228#10A50181001BA47F
(1572541998.545477) can0 308#F000000000050000
(1572541998.546435) can0 398#3327101600000000
(1572541998.547434) can0 3B8#8000000000000000
(1572541998.548385) can0 088#FF0F06199000FFFF
(1572541998.549328) can0 401#11648D0000001964
(1572541998.550311) can0 402#1103000000000004
(1572541998.551334) can0 208#0002000000000000
(1572541998.552270) can0 404#0164CA0527474204
(1572541998.553267) can0 448#0000FF0000000000
(1572541998.554263) can0 4A8#0500000000000000
(1572541998.556666) can0 0C8#0000000000000000
(1572541998.559178) can0 2C8#CB00000000007F7F
(1572541998.562586) can0 4A8#0500000000000000
(1572541998.567546) can0 088#FF100619A000FFFF
(1572541998.568497) can0 0A8#FEF49105BF3F0000
(1572541998.569464) can0 268#EB08000004020800
(1572541998.570431) can0 2A8#C000000001387000
(1572541998.572383) can0 028#1000160000000000
(1572541998.573414) can0 0C8#0000000000000000
(1572541998.574388) can0 108#0000000000000000
(1572541998.575371) can0 128#C000000000003F3F
(1572541998.576369) can0 168#0000030000000000
(1572541998.577328) can0 188#600000001BA47F00
(1572541998.578262) can0 1A8#001135790E770000
(1572541998.579213) can0 1D8#10000000CA052748
(1572541998.580171) can0 248#00807BE1803D2E00
(1572541998.581176) can0 288#0000000000000000
(1572541998.582174) can0 338#0000000000000000
(1572541998.583139) can0 2E8#9800000061000000
(1572541998.584094) can0 228#10A50181001BA47F
(1572541998.585057) can0 348#68D0000042000000
(1572541998.586055) can0 048#FE00000037FE03FF
(1572541998.586983) can0 388#8000D88C6F1BA47F
(1572541998.587925) can0 088#FF120619C000FEFF
(1572541998.588931) can0 0C8#0000000000000000
(1572541998.589874) can0 3C8#8029CC1093FFFFF1
(1572541998.590866) can0 4A8#0500000000000000
(1572541998.591856) can0 4A8#0500000000000000
(1572541998.592845) can0 4A8#0500000000000000
(1572541998.593816) can0 068#FC00402FBDD04204
(1572541998.594752) can0 368#DD88D7B220500000
(1572541998.595731) can0 308#F000000000050000
(1572541998.596690) can0 398#3327101600000000
(1572541998.597682) can0 50C#0F12000000000000
(1572541998.599058) can0 1C8#800002081F022011
(1572541998.603774) can0 4A8#0500000000000000
(1572541998.604777) can0 0C8#0000000000000000
(1572541998.606111) can0 208#0002000000000000
(1572541998.607535) can0 088#FF130619D000FEFF
(1572541998.612582) can0 4A8#0500000000000000
(1572541998.613522) can0 1A8#001135790E770000
(1572541998.617546) can0 0A8#FEF49185BFFF0000
(1572541998.618509) can0 268#EB08000004020800
(1572541998.619492) can0 2C8#CB00000000007F7F
(1572541998.620507) can0 028#1000160000000000
(1572541998.621514) can0 0C8#0000000000000000
(1572541998.622513) can0 108#0000000000000000
(1572541998.623518) can0 168#0000030000000000
(1572541998.624471) can0 1D8#10000000CA052749
(1572541998.625464) can0 1E8#3400000000000000
(1572541998.626414) can0 228#10A50181001BA47F
(1572541998.627342) can0 388#8000D88C6F1BA47F
(1572541998.628293) can0 088#FF140619E000FEFF
(1572541998.634035) can0 248#00807BE1803D2E00
(1572541998.636062) can0 3B8#8000000000000000
(1572541998.637060) can0 0C8#0800000000000000
(1572541998.638059) can0 448#0000FF0000000000
(1572541998.643083) can0 068#FF00402FBDD04204
(1572541998.644046) can0 398#3327101600000000
(1572541998.645042) can0 048#FE00000037FE03FF
(1572541998.646025) can0 308#F000000000050000
(1572541998.647017) can0 328#E000000000000000
(1572541998.647975) can0 088#FF0706191000FFFF
(1572541998.648958) can0 128#C000000000003F3F
(1572541998.652390) can0 0C8#0800000000000000
(1572541998.653325) can0 1A8#001135790E770000
(1572541998.661045) can0 208#C0020820810829A9
(1572541998.662010) can0 2E8#9800000061000000
(1572541998.663445) can0 228#10E50181001BA47F
(1572541998.664378) can0 1C8#800002081F022011
(1572541998.667593) can0 088#FF0806192000FFFF
(1572541998.668583) can0 028#36001600C0000000
(1572541998.669534) can0 0A8#FEF49185BFFF0000
(1572541998.670541) can0 0C8#0000000000000000
(1572541998.671540) can0 108#4000000000000000
(1572541998.672539) can0 168#0000030000008000
(1572541998.673502) can0 188#600000001BA47F00
(1572541998.674456) can0 1D8#10000000CA052749
(1572541998.675423) can0 268#EB08000004020800
(1572541998.676417) can0 1E8#3400000000000000
(1572541998.677404) can0 288#F0000000FFFFFFFF
(1572541998.678371) can0 2A8#C000000001387000
(1572541998.679354) can0 2C8#CB00000000007F7F
(1572541998.680320) can0 348#68D0000042000000
(1572541998.681264) can0 368#DDC8D7B220500000
(1572541998.682191) can0 388#8000D88C6F1BA47F
(1572541998.683134) can0 3C8#8029CC1093FFFFF1
(1572541998.684385) can0 0C8#0800400000000000
(1572541998.687565) can0 088#FF0906193000FFFF
(1572541998.693101) can0 068#FF00402FBDD04204
(1572541998.694038) can0 1A8#001135790E770000
(1572541998.695002) can0 248#00807BE1803D2E00
(1572541998.695980) can0 308#F000000000050000
(1572541998.696938) can0 398#3327101600000000
(1572541998.700376) can0 0C8#9A0040121E780000
(1572541998.703440) can0 228#10A50181001BA47F
(1572541998.704398) can0 50F#1112000000000000
(1572541998.705388) can0 048#FF80000037FE03FF
(1572541998.707564) can0 088#FF0B06195000FFFF
(1572541998.716047) can0 208#C0020820810829A9
(1572541998.717033) can0 028#3E001600C0000000
(1572541998.717984) can0 0A8#FEF49185BFFF0000
(1572541998.718934) can0 0C8#9A0040121E780000
(1572541998.719933) can0 108#4000000000000000
(1572541998.720931) can0 168#0000030000008000
(1572541998.721882) can0 1D8#50000000CA05274A
(1572541998.722866) can0 128#C000000000003F3F
(1572541998.723836) can0 268#EB08000004020800
(1572541998.724758) can0 388#8000C88C6F1BA47F
(1572541998.725752) can0 1E8#3400000000000000
(1572541998.726751) can0 338#0000000000000000
(1572541998.727718) can0 088#FF0C06196000FFFF
(1572541998.728717) can0 3B8#8000000000000000
(1572541998.729684) can0 1C8#800002081F022011
(1572541998.730683) can0 448#0000FF0000000000
(1572541998.732401) can0 0C8#9A0040121E780000
(1572541998.733337) can0 1A8#001135790E770000
(1572541998.734330) can0 488#80FFFFFFFFFFFFFF
(1572541998.739184) can0 2C8#CB00000000007F7F
(1572541998.742044) can0 2E8#9800000061000000
(1572541998.743115) can0 068#FC00402EBDD04204
(1572541998.744071) can0 228#10A50181001BA47F
(1572541998.745050) can0 308#F000000000050000
(1572541998.745993) can0 368#DD88D7B220500000
(1572541998.746953) can0 398#3327101600000000
(1572541998.747911) can0 088#FF1029167000FFFF
(1572541998.748855) can0 0C8#F7C04F121E780000
(1572541998.754194) can0 248#00807BE1803D2E00
(1572541998.764493) can0 028#7E001600C0000000
(1572541998.765487) can0 048#FE00000037FE03FF
(1572541998.766422) can0 0C8#FEC04F121E780000
(1572541998.767382) can0 108#DD00600001920000
(1572541998.768325) can0 088#FF1229169000FFFF
(1572541998.769275) can0 0A8#FEF49185BFFF0000
(1572541998.770225) can0 168#B88003006A0083FF
(1572541998.771137) can0 188#789191961BA47F00
(1572541998.772079) can0 1D8#D0000000CA05274A
(1572541998.773047) can0 208#C0020820810829A9
(1572541998.774003) can0 1A8#001135780E710000
(1572541998.774964) can0 268#EB08000004020800
(1572541998.775931) can0 2A8#C000000001287000
(1572541998.776883) can0 348#7850000042340000
(1572541998.777793) can0 388#F647C88C6F1BA47F
(1572541998.778737) can0 3C8#C029CC1093FFFFF1
(1572541998.780512) can0 0C8#FEC04F121E780000
(1572541998.783152) can0 400#1202020102030202
(1572541998.784095) can0 228#10A50181001BA47F
(1572541998.785021) can0 405#023735002E02C3A6
(1572541998.787565) can0 088#FF132916A000FFFF
(1572541998.793126) can0 068#FC00402EBDD04204
(1572541998.794090) can0 398#3327101600000000
(1572541998.795053) can0 1C8#800002081F022011
(1572541998.796036) can0 308#F000000000050000
(1572541998.796970) can0 0C8#FEC04F121E780000
(1572541998.797953) can0 128#C000000000003F3F
(1572541998.798944) can0 328#E000000000000000
(1572541998.799927) can0 2C8#CB00000000007F7F
(1572541998.800879) can0 401#1265196465000000
(1572541998.801845) can0 402#1202020102030202
(1572541998.802789) can0 404#023735002E02C3A6
(1572541998.807576) can0 088#FF142916B000FFFF
(1572541998.812324) can0 028#7E201600C0000000
(1572541998.813259) can0 0C8#FEC04F121E780000
(1572541998.814222) can0 108#DD00600005920000
(1572541998.815177) can0 168#B88003E16A0083FF
(1572541998.816128) can0 1A8#001135780E710000
(1572541998.817071) can0 1D8#50000000CA05274B
(1572541998.818030) can0 0A8#FEF49185BF3F0000
(1572541998.818990) can0 248#00807BE1803D2E00
(1572541998.819956) can0 268#EB08000004020800
(1572541998.820899) can0 368#DDC8D7B220500000
(1572541998.821810) can0 388#8647C88C6F1BA47F
(1572541998.822776) can0 2E8#9800000061000000
(1572541998.823730) can0 228#10A50181001BA47F
(1572541998.824726) can0 3B8#8000000000000000
(1572541998.825725) can0 048#FE00000037FE03FF
(1572541998.826691) can0 208#C0020820810829A9
(1572541998.827634) can0 088#FF162916D000FFFF
(1572541998.828568) can0 0C8#F6C04F121E780000
(1572541998.829575) can0 148#0000000000000000
(1572541998.830573) can0 448#0000FF0000000000
(1572541998.831547) can0 511#1302000000000000
(1572541998.834980) can0 288#F000000000910091
(1572541998.836522) can0 148#0000000000000000
(1572541998.838176) can0 468#0000000000000000
(1572541998.843113) can0 068#7C00402EBDD04204
(1572541998.844076) can0 398#3327101600000000
(1572541998.845023) can0 0C8#FFC04F121E780000
(1572541998.846030) can0 148#0000000000000000
(1572541998.847012) can0 308#F000000000050000
(1572541998.847956) can0 088#FF172916E000FFFF
(1572541998.848963) can0 468#0000000000000000
(1572541998.852378) can0 148#017F090000000000
(1572541998.853320) can0 1A8#001135770E6A0000
(1572541998.858179) can0 468#0000000000000000
(1572541998.859216) can0 2C8#CB00000000007F7F
(1572541998.860184) can0 1C8#800002081F022011
(1572541998.861167) can0 028#7E20160000800000
(1572541998.862102) can0 0C8#FEC04F121E780000
(1572541998.863061) can0 108#DD00600005920000
(1572541998.864049) can0 148#017F090000000000
(1572541998.865018) can0 168#B88003E06A0083FF
(1572541998.865929) can0 188#689191961BA47F00
(1572541998.866872) can0 1D8#50000000CA05274B
(1572541998.867831) can0 088#FF0929160000FFFF
(1572541998.868789) can0 0A8#FEF49185BF3F0000
(1572541998.869771) can0 148#017F090000000000
(1572541998.870719) can0 228#10A50181001BA47F
(1572541998.871688) can0 268#EB08000004020800
(1572541998.872669) can0 128#C000000000003F3F
(1572541998.873640) can0 2A8#C000000001287000
(1572541998.874596) can0 248#00807BE1803D2E00
(1572541998.875546) can0 348#7850000042340000
(1572541998.876545) can0 338#0000000000000000
(1572541998.877455) can0 388#8647C88C6F1BA47F
(1572541998.878399) can0 3C8#C029CC1093FFFFF1
(1572541998.879342) can0 468#02498DE644780000
(1572541998.880286) can0 468#02498DE644780000
(1572541998.881253) can0 208#C0020820810829A9
(1572541998.885369) can0 048#FE00000037FE03FF
(1572541998.887580) can0 088#FF0B29162000FFFF
(1572541998.888524) can0 468#02498DE644780000
(1572541998.891131) can0 0C8#FEC04F121E780000
(1572541998.892120) can0 148#017F090000000000
(1572541998.893169) can0 068#7C00402EBDD04204
(1572541998.894109) can0 1A8#001135770E6A0000
(1572541998.895048) can0 368#DDC8D7B220500000
(1572541998.896031) can0 308#F000000000050000
(1572541998.896958) can0 148#031A23936A960000
(1572541998.897918) can0 398#3327101600000000
(1572541998.898861) can0 468#02498DE644780000
(1572541998.901761) can0 2E8#D8000000611BA47F
(1572541998.903360) can0 228#10A50181001BA47F
(1572541998.904432) can0 0C8#F6C04F121E780000
(1572541998.905358) can0 148#031A23936A960000
(1572541998.906357) can0 3B8#8000000000000000
(1572541998.907356) can0 448#0000FF0000000000
(1572541998.908307) can0 088#FF0C29163000FFFF
(1572541998.909299) can0 468#04817F0000000000
(1572541998.912545) can0 148#031A23936A960000
(1572541998.917587) can0 0A8#FEF49185BF3F0000
(1572541998.918553) can0 268#EB08000004020800
(1572541998.919536) can0 2C8#CB00000000007F7F
(1572541998.920528) can0 468#04817F0000000000
(1572541998.921511) can0 028#7E20160000800000
(1572541998.922447) can0 0C8#FEC04F121E780000
(1572541998.923439) can0 108#DF00600005920000
(1572541998.924405) can0 148#0500000000000000
(1572541998.925388) can0 168#B88003E06A0083FF
(1572541998.926347) can0 1C8#800002081F022011
(1572541998.927298) can0 1D8#50000000CA05274C
(1572541998.928241) can0 088#FF0D29164000FFFF
(1572541998.929232) can0 148#0500000000000000
(1572541998.930143) can0 388#8647C88C6F1BA47F
(1572541998.931134) can0 468#04817F0000000000
(1572541998.933198) can0 1A8#001135760E650000
(1572541998.934521) can0 248#00807BE1803D2E00
(1572541998.936053) can0 208#C0020820810829A9
(1572541998.936987) can0 0C8#FEC04F121E780000
(1572541998.937978) can0 148#0500000000000000
(1572541998.943139) can0 068#7C00402EBDD04204
(1572541998.944083) can0 228#10E50181001BA47F
(1572541998.945072) can0 148#0500000000000000
(1572541998.946071) can0 048#FE00000037FE03FF
(1572541998.947053) can0 308#F000000000050000
(1572541998.947997) can0 088#FF0F29166000FFFF
(1572541998.948988) can0 328#E000000000000000
(1572541998.949947) can0 398#3327101600000000
(1572541998.950930) can0 513#0102000000000000
(1572541998.952825) can0 0C8#FFC04F121E780000
(1572541998.953821) can0 148#0500000000000000
(1572541998.960736) can0 148#0500000000000000
(1572541998.967601) can0 088#FF1029167000FFFF
(1572541998.968583) can0 028#7E20160000800000
(1572541998.969541) can0 0A8#FEF49185BF3F0000
(1572541998.970476) can0 0C8#F6C04F121E780000
(1572541998.971434) can0 108#DD00600005920000
(1572541998.972425) can0 148#0500000000000000
(1572541998.973409) can0 168#B88003E16A0083FF
(1572541998.974295) can0 188#689191961BA47F00
(1572541998.975238) can0 1A8#001135760E650000
(1572541998.976189) can0 1D8#50000000CA05274C
(1572541998.977156) can0 268#EB08000004020800
(1572541998.978146) can0 148#0500000000000000
(1572541998.979113) can0 2A8#C000000001287000
(1572541998.980096) can0 2C8#CB00000000007F7F
(1572541998.981047) can0 348#7850000042340000
(1572541998.981989) can0 2E8#98000000611BA47F
(1572541998.982980) can0 128#0000000000003F3F
(1572541998.983935) can0 228#10A50181001BA47F
(1572541998.984867) can0 0C8#FEC04F121E780000
(1572541998.985857) can0 148#0500000000000000
(1572541998.986801) can0 368#DDC8D7B220500000
(1572541998.987752) can0 088#FF1129168000FFFF
(1572541998.988662) can0 388#8647C88C6F1BA47F
(1572541998.989630) can0 1C8#800002081F022011
(1572541998.990573) can0 3C8#C0A9CC1093FFFFF1
(1572541998.991539) can0 208#C0020820810829A9
(1572541998.992526) can0 50B#0B01000000000000
(1572541998.993470) can0 068#7C004029BDD04204
(1572541998.994455) can0 148#0500000000000000
(1572541998.995414) can0 248#00807BE1803D2E00
(1572541998.996403) can0 288#F000000000FFFFFF
(1572541998.997392) can0 308#F000000000050000
(1572541998.998345) can0 398#3327101600000000
(1572541998.999344) can0 3B8#8000000000000000
(1572541999.000342) can0 448#0000FF0000000000
(1572541999.001277) can0 0C8#FEC04F121E780000
(1572541999.005425) can0 048#FF80000037FE03FF
(1572541999.007605) can0 088#FF132916A000FFFF
(1572541999.013189) can0 1A8#001135760E650000
(1572541999.014186) can0 488#80FFFFFFFFFFFFFF
(1572541999.016604) can0 028#7E2096FE00800000
(1572541999.017539) can0 0C8#FEC04F121E780000
(1572541999.018498) can0 0A8#FEF49185BF3F0000
(1572541999.019457) can0 108#DD00600005920000
(1572541999.020416) can0 168#B88003E16A0083FF
(1572541999.021375) can0 1D8#50000000CA05274D
(1572541999.022341) can0 268#EB08000004020800
(1572541999.023253) can0 388#8647C88C6F1BA47F
(1572541999.024208) can0 228#10A50181001BA47F
(1572541999.026611) can0 338#0000000000000000
(1572541999.027635) can0 088#FF142916B000FFFF
(1572541999.032505) can0 0C8#FEC04F121E780000
(1572541999.033509) can0 400#1302000000000000
(1572541999.039208) can0 2C8#CB00000000007F7F
(1572541999.043153) can0 068#7C004024BCD04204
(1572541999.044100) can0 368#DDC8D7B220500000
(1572541999.045079) can0 308#F000000000050000
(1572541999.046039) can0 398#3327101600000000
(1572541999.047005) can0 208#C0020820810829A9
(1572541999.047956) can0 088#FF152916C000FFFF
(1572541999.048899) can0 0C8#F7C04F121E780000
(1572541999.049842) can0 401#1315150019190000
(1572541999.050841) can0 402#1302000000000000
(1572541999.051784) can0 404#023735002E02C3A6
(1572541999.053168) can0 1A8#001135760E650000
(1572541999.054676) can0 1C8#800002081F022011
(1572541999.055632) can0 248#00807BE1803D2E00
(1572541999.057415) can0 128#C000000000003F3F
(1572541999.061713) can0 2E8#98000000611BA47F
(1572541999.063320) can0 228#10A50181001BA47F
(1572541999.064456) can0 028#7E2096FE00800000
(1572541999.065454) can0 048#FE00000037FE03FF
(1572541999.066390) can0 0C8#FEC04F121E780000
(1572541999.067341) can0 108#DD00607C05920000
(1572541999.068283) can0 088#FF172916E000FFFF
(1572541999.069243) can0 0A8#FEF49185BF3F0000
(1572541999.070193) can0 168#B88003E36A0083FF
(1572541999.071104) can0 188#689191961BA47F00
(1572541999.072063) can0 1D8#50000000CA05274D
(1572541999.073030) can0 268#EB08000004020800
(1572541999.074001) can0 2A8#C000000001287000
(1572541999.074957) can0 348#784062007E340000
(1572541999.075868) can0 388#8647C88C6F1BA47F
(1572541999.076810) can0 3C8#C0A9CC1093FFFFF1
(1572541999.077794) can0 501#0302000000000000
(1572541999.080265) can0 0C8#FEC04F121E780000
(1572541999.086083) can0 3B8#8000000000000000
(1572541999.087079) can0 448#0000FF0000000000
(1572541999.088037) can0 088#FF0929160000FFFF
(1572541999.093176) can0 068#7C004025BCD04204
(1572541999.094110) can0 1A8#001135760E650000
(1572541999.095091) can0 308#F000000000050000
(1572541999.096082) can0 328#E000000000000000
(1572541999.097017) can0 0C8#FEC04F121E780000
(1572541999.097976) can0 398#3327101600000000
(1572541999.099271) can0 2C8#CB00000000007F7F
(1572541999.101079) can0 208#C0020820810829A9
(1572541999.103268) can0 228#10A50181001BA47F
(1572541999.107609) can0 088#FF0A29161000FFFF
(1572541999.112308) can0 028#7E2096FE00800000
(1572541999.113244) can0 0C8#FEC04F121E780000
(1572541999.114199) can0 108#DD00607C05920000
(1572541999.115153) can0 168#B88003E16A0083FF
(1572541999.116097) can0 1D8#50000000CA05274E
(1572541999.117055) can0 248#00807BE1803D2E00
(1572541999.118015) can0 0A8#FEF49185BF3F0000
(1572541999.118982) can0 268#EB08000004020800
(1572541999.119948) can0 1C8#800002081F022011
(1572541999.120891) can0 368#DDC8D7B220500000
(1572541999.121803) can0 388#8647C88C6F1BA47F
(1572541999.125091) can0 048#FE00000037FE03FF
(1572541999.127618) can0 088#FF0C29163000FFFF
(1572541999.128553) can0 0C8#F6C04F121E780000
(1572541999.132424) can0 128#C000000000003F3F
(1572541999.133402) can0 1A8#0011356F0E200000
(1572541999.141647) can0 2E8#98000000611BA47F
(1572541999.143190) can0 068#7C004026BCD04204
(1572541999.144146) can0 228#10A50181001BA47F
(1572541999.145092) can0 0C8#FFC04F121E780000
(1572541999.146076) can0 308#F000000000050000
(1572541999.147035) can0 398#3327101600000000
(1572541999.147978) can0 088#FF0D29164000FFFF
(1572541999.152671) can0 288#F000000000910091
(1572541999.156055) can0 208#C0020820810829A9
(1572541999.159222) can0 2C8#CB00000000007F7F
(1572541999.160317) can0 028#7E2096FE00800000
(1572541999.161251) can0 0C8#FEC04F121E780000
(1572541999.162218) can0 108#DF00607C05920000
(1572541999.163178) can0 168#B88003E16A0083FF
(1572541999.164109) can0 188#289191961BA47F00
(1572541999.165048) can0 1D8#50000000CA05274E
(1572541999.166006) can0 348#784062007E340000
(1572541999.166917) can0 388#8647C88C6F1BA47F
(1572541999.167869) can0 088#FF0E29165000FFFF
(1572541999.168828) can0 0A8#FEF49185BF3F0000
(1572541999.169794) can0 268#EB08000004020800
(1572541999.170768) can0 2A8#C000000001287000
(1572541999.171705) can0 3C8#C0A9CC1093FFFFF1
(1572541999.173200) can0 1A8#0011356F0E200000
(1572541999.174860) can0 248#00807BE1803D2E00
(1572541999.176102) can0 3B8#8000000000000000
(1572541999.177037) can0 0C8#FEC04F121E780000
(1572541999.178036) can0 338#0000000000000000
(1572541999.179038) can0 448#0000FF0000000000
(1572541999.183225) can0 228#10A50181001BA47F
(1572541999.184822) can0 1C8#800002081F022011
(1572541999.185817) can0 048#FE00000037FE03FF
(1572541999.186808) can0 503#0402000000000000
(1572541999.187767) can0 088#FF1029167000FFFF
(1572541999.192326) can0 0C8#FEC04F121E780000
(1572541999.193296) can0 068#7C004025BCD04204
(1572541999.194230) can0 368#DD88D7B220500000
(1572541999.195189) can0 398#3327101600000000
(1572541999.196172) can0 308#F000000000050000
(1572541999.207431) can0 128#C000000000003F3F
(1572541999.208394) can0 028#7E2096FE00800000
(1572541999.209345) can0 088#FF1129168000FFFF
(1572541999.210279) can0 0C8#F6C04F121E780000
(1572541999.211231) can0 108#DD00607C05920000
(1572541999.212190) can0 168#B88003E16A0083FF
(1572541999.213141) can0 1D8#50000000CA05274F
(1572541999.214096) can0 1A8#001135650E000000
(1572541999.215059) can0 208#C0020820810829A9
(1572541999.215970) can0 388#8647C88C6F1BA47F
(1572541999.217641) can0 0A8#FEF49185BF3F0000
(1572541999.218608) can0 268#EB08000004020800
(1572541999.219592) can0 2C8#CB00000000007F7F
(1572541999.221581) can0 2E8#98000000611BA47F
(1572541999.223300) can0 228#10A50181001BA47F
(1572541999.224492) can0 0C8#FEC04F121E780000
(1572541999.227651) can0 088#FF1229169000FFFF
(1572541999.234962) can0 248#00807BE1803D2E00
(1572541999.240709) can0 0C8#FFC04F121E780000
(1572541999.243197) can0 068#7C004024BCD04204
(1572541999.244157) can0 398#3327101600000000
(1572541999.245252) can0 048#FE00000037FE03FF
(1572541999.246235) can0 308#F000000000050000
(1572541999.247226) can0 328#E000000000000000
(1572541999.248177) can0 088#FF142916B000FFFF
(1572541999.250002) can0 1C8#800002081F022011
(1572541999.253193) can0 1A8#001135650E000000
(1572541999.256524) can0 028#7E2096FE00800000
(1572541999.257455) can0 0C8#FEC04F121E780000
(1572541999.258406) can0 108#DD0060D205900000
(1572541999.259365) can0 168#B88003E16A0083FF
(1572541999.260276) can0 188#689191961BA47F00
(1572541999.261227) can0 1D8#50000000CA05274F
(1572541999.262187) can0 348#784062007E340000
(1572541999.263154) can0 378#0000000000130927
(1572541999.264108) can0 228#10E50181001BA47F
(1572541999.265008) can0 388#8647C88C6F1BA47F
(1572541999.265951) can0 3C8#C0A9CC1093FFFFF1
(1572541999.266917) can0 208#C0020820810829A9
(1572541999.267868) can0 088#FF152916C000FFFF
(1572541999.268827) can0 0A8#FEF49185BF3F0000
(1572541999.269795) can0 268#EB08000004020800
(1572541999.270759) can0 2A8#C000000001287000
(1572541999.271702) can0 368#DDC8D7B220500000
(1572541999.272636) can0 0C8#FEC04F121E780000
(1572541999.273640) can0 3B8#8000000000000000
(1572541999.274636) can0 448#0000FF0000000000
(1572541999.279219) can0 2C8#CB00000000007F7F
(1572541999.282418) can0 128#C000000000003F3F
(1572541999.283453) can0 400#1400000000000000
(1572541999.284353) can0 405#1237523030353033
(1572541999.287632) can0 088#FF162916D000FFFF
(1572541999.288567) can0 0C8#F6C04F121E780000
(1572541999.293232) can0 068#7C004027BCD04204
(1572541999.294208) can0 1A8#0011355F0E000000
(1572541999.295166) can0 248#00807BE1803D2E00
(1572541999.296149) can0 308#F000000000050000
(1572541999.297109) can0 398#3327101600000000
(1572541999.298108) can0 401#1400000000000000
(1572541999.299122) can0 402#1400000000000000
(1572541999.300065) can0 404#1237523030353033
(1572541999.301056) can0 488#80FFFFFFFFFFFFFF
(1572541999.301997) can0 2E8#98000000611BA47F
(1572541999.302995) can0 504#0502000000000000
(1572541999.303950) can0 228#10A50181001BA47F
(1572541999.304913) can0 028#7E2096FE00800000
(1572541999.305848) can0 0C8#FEC04F121E780000
(1572541999.306840) can0 048#FF80000037FE03FF
(1572541999.307797) can0 088#FF0929160000FFFF
(1572541999.308749) can0 108#DD0060D205900000
(1572541999.309707) can0 168#B88003E16A0083FF
(1572541999.310658) can0 1D8#50000000CA052750
(1572541999.311569) can0 388#8647C88C6F1BA47F
(1572541999.313341) can0 288#F000000000910091
(1572541999.315070) can0 1C8#800002081F022011
(1572541999.316077) can0 4D8#0000000000000000
(1572541999.317652) can0 0A8#FEF49185BF3F0000
(1572541999.318619) can0 268#EB08000004020800
(1572541999.320594) can0 0C8#FEC04F121E780000
(1572541999.321561) can0 208#C0020820810829A9
(1572541999.326908) can0 338#0000000000000000
(1572541999.327847) can0 088#FF0A29161000FFFF
(1572541999.333223) can0 1A8#0011355F0E000000
(1572541999.336571) can0 0C8#FEC04F121E780000
(1572541999.339220) can0 2C8#CB00000000007F7F
(1572541999.343171) can0 228#10A50181001BA47F
(1572541999.344123) can0 068#7C004026BDD04204
(1572541999.345065) can0 368#DDC8D7B220500000
(1572541999.346048) can0 308#F000000000050000
(1572541999.347009) can0 398#3327101600000000
(1572541999.347951) can0 088#FF0B29162000FFFF
(1572541999.352726) can0 028#7E0096FE00800000
(1572541999.353681) can0 0C8#FFC04F121E780000
(1572541999.354636) can0 108#DF0060D205940000
(1572541999.355595) can0 168#B88003E16A0083FF
(1572541999.356522) can0 188#289191961BA47F00
(1572541999.357505) can0 128#C000000000003F3F
(1572541999.358456) can0 1D8#50000000CA052750
(1572541999.359415) can0 248#00807BE1803D2E00
(1572541999.360374) can0 348#784062007E340000
(1572541999.361285) can0 388#8647C88C6F1BA47F
(1572541999.362284) can0 3B8#8000000000000000
(1572541999.363227) can0 3C8#C0A9CC1093FFFFF1
(1572541999.364230) can0 448#0000FF0000000000
(1572541999.365905) can0 048#FE00000037FE03FF
(1572541999.367665) can0 088#FF0D29164000FFFF
(1572541999.368624) can0 0A8#FEF49185BF3F0000
(1572541999.369559) can0 0C8#F6C04F111E780000
(1572541999.370526) can0 268#EB08000004020800
(1572541999.371493) can0 2A8#C000000001287000
(1572541999.373292) can0 1A8#0011355A0E000000
(1572541999.376054) can0 208#C0020820810829A9
(1572541999.380182) can0 1C8#800002081F022011
(1572541999.381420) can0 2E8#D8000000611BA47F
(1572541999.383178) can0 228#10A50181001BA47F
(1572541999.384373) can0 0C8#FEC04F111E780000
(1572541999.387657) can0 088#FF0E29165000FFFF
(1572541999.393234) can0 068#7C004026BDD04204
(1572541999.394188) can0 398#33270F1600000000
(1572541999.395649) can0 308#F000000000050000
(1572541999.396640) can0 328#E000000000000000
(1572541999.399232) can0 2C8#CB00000000007F7F
(1572541999.400406) can0 028#7E0096FE00800000
(1572541999.401357) can0 0C8#FEC04F111E780000
(1572541999.402308) can0 108#DD0060AE05940000
(1572541999.403259) can0 168#B88003E36A0083FF
(1572541999.404206) can0 1D8#50000000CA052751
(1572541999.405113) can0 388#8647C88C6F1BA47F
(1572541999.407656) can0 088#FF0F29166000FFFF
(1572541999.413224) can0 1A8#0011355A0E000000
(1572541999.415219) can0 248#00807BE1803D2E00
(1572541999.416463) can0 505#0802000000000000
(1572541999.417414) can0 0C8#FEC04F111E780000
(1572541999.418372) can0 0A8#FEF49185BF3F0000
(1572541999.419340) can0 268#EB08000004020800
(1572541999.420283) can0 368#DDC8D7B220500000
(1572541999.423193) can0 228#10A50181001BA47F
(1572541999.425581) can0 048#FE00000037FE03FF
(1572541999.427685) can0 088#FF1129168000FFFF
(1572541999.431080) can0 208#C0020820810829A9
(1572541999.432462) can0 128#C000000000003F3F
(1572541999.433466) can0 0C8#FEC08F111D960000
(1572541999.443215) can0 068#7C004026BDD04204
(1572541999.444167) can0 398#33270F1600000000
(1572541999.445342) can0 1C8#800002081F022011
(1572541999.446325) can0 308#F000000000050000
(1572541999.447324) can0 3B8#8000000000000000
(1572541999.448266) can0 088#FF1229169000FFFF
(1572541999.449234) can0 028#7E0096FE00800000
(1572541999.450167) can0 0C8#F7C08F111D960000
(1572541999.451117) can0 108#DD0060AE05940000
(1572541999.452075) can0 168#B88003E56A0083FF
(1572541999.453002) can0 188#289191961BA47F00
(1572541999.453966) can0 1A8#001135570E000000
(1572541999.454903) can0 1D8#50000000CA052751
(1572541999.455861) can0 348#784062007E340000
(1572541999.456771) can0 388#8647C88C6F1BA47F
(1572541999.457714) can0 3C8#C0A9CC1093FFFFF1
(1572541999.458713) can0 448#0000FF0000000000
(1572541999.459696) can0 2C8#CB00000000007F7F
(1572541999.461317) can0 2E8#98000000611BA47F
(1572541999.463268) can0 228#10A50181001BA47F
(1572541999.464472) can0 0C8#FEC08F111D960000
(1572541999.467666) can0 088#FF132916A000FFFF
(1572541999.468610) can0 0A8#FEF09185BF3F0000
(1572541999.469578) can0 268#EB08000004020800
(1572541999.470544) can0 2A8#C000000001287000
(1572541999.472469) can0 288#F000000000910091
(1572541999.475310) can0 248#00807BE1803D2E00
(1572541999.477084) can0 338#0000000000000000
(1572541999.480522) can0 0C8#FEC08F121D960000
(1572541999.485638) can0 048#FE00000037FE03FF
(1572541999.486602) can0 208#C0020820810829A9
(1572541999.487690) can0 088#FF152916C000FFFF
(1572541999.493225) can0 068#7C004025BDD04204
(1572541999.494199) can0 1A8#001135570E000000
(1572541999.495128) can0 368#DDC8D7B220500000
(1572541999.496111) can0 308#F000000000050000
(1572541999.497078) can0 028#7E0096FE00800000
(1572541999.498020) can0 0C8#FEC08F111D960000
(1572541999.498971) can0 108#DD0060C605940000
(1572541999.499922) can0 168#B88003E26A0083FF
(1572541999.500865) can0 1D8#50000000CA052751
(1572541999.501776) can0 388#8647C88C6F1BA47F
(1572541999.502727) can0 398#33270E1600000000
(1572541999.503682) can0 228#10A50181001BA47F
(1572541999.507430) can0 128#C000000000003F3F
(1572541999.508372) can0 088#FF162916D000FFFF
(1572541999.510349) can0 1C8#800002081F022011
(1572541999.512564) can0 0C8#FEC08F111D960000
(1572541999.517661) can0 0A8#FEF09185BF3F0000
(1572541999.518628) can0 268#EB08000004020800
(1572541999.519610) can0 2C8#CB00000000007F7F
(1572541999.525391) can0 508#0B02000000000000
(1572541999.527654) can0 088#FF172916E000FFFF
(1572541999.528580) can0 0C8#F6C08F111D960000
(1572541999.533261) can0 1A8#001135570E000000
(1572541999.534264) can0 400#1500000002000000
(1572541999.535188) can0 405#0169CA0527514204
(1572541999.536147) can0 248#00807BE1803D2E00
(1572541999.537145) can0 3B8#8000000000000000
(1572541999.538145) can0 448#0000FF0000000000
(1572541999.541064) can0 208#C0020820810829A9
(1572541999.542007) can0 2E8#98000000611BA47F
(1572541999.543166) can0 228#10E50181001BA47F
(1572541999.544130) can0 068#7C004026BCD04204
(1572541999.545093) can0 028#7E0096FE00800000
(1572541999.546091) can0 048#FE00000037FE03FF
(1572541999.547034) can0 0C8#FFC08F121D960000
(1572541999.547976) can0 088#FF0A29161000FFFF
(1572541999.548911) can0 108#DF64616C05940000
(1572541999.549861) can0 168#B88003E26A0083FF
(1572541999.550773) can0 188#689191961BA47F00
(1572541999.551715) can0 1D8#50000000CA052752
(1572541999.552698) can0 308#F000000000050000
(1572541999.553692) can0 328#E000000000000000
(1572541999.554648) can0 348#784062007E340000
(1572541999.555559) can0 388#8647C88C6F1BA47F
(1572541999.556519) can0 398#33270D1600000000
(1572541999.557462) can0 3C8#C0A9CC1093FFFFF1
(1572541999.558454) can0 401#1500000000000000
(1572541999.559452) can0 402#1500000002000000
(1572541999.560387) can0 0C8#FEC08F121D960000
(1572541999.561322) can0 404#0169CA0527514204
(1572541999.567676) can0 088#FF0B29162000FFFF
(1572541999.568618) can0 0A8#FEF09185BF3F0000
(1572541999.569585) can0 268#EB08000004020800
(1572541999.570552) can0 2A8#C000000001287000
(1572541999.571496) can0 368#DDC8D7B220500000
(1572541999.573295) can0 1A8#001135540E000000
(1572541999.574288) can0 488#80FFFFFFFFFFFFFF
(1572541999.575487) can0 1C8#800002081F022011
(1572541999.576422) can0 0C8#FEC08F121D960000
(1572541999.579236) can0 2C8#CB00000000007F7F
(1572541999.582420) can0 128#C000000000003F3F
(1572541999.583406) can0 228#10A50181001BA47F
(1572541999.587676) can0 088#FF0C29163000FFFF
(1572541999.592434) can0 028#7E0096FE00800000
(1572541999.593409) can0 068#7C004027BCD04204
(1572541999.594338) can0 0C8#FEC08F121D960000
(1572541999.595263) can0 108#DD64629705940000
(1572541999.596213) can0 168#B88003E26A0083FF
(1572541999.597155) can0 1D8#50000000CA052752
(1572541999.598122) can0 208#C0020820810829A9
(1572541999.599081) can0 248#00807BE1803D2E00
(1572541999.600065) can0 308#F000000000050000
(1572541999.600992) can0 388#8647C88C001BA47F
(1572541999.601959) can0 398#33270D1600000000
(1572541999.605404) can0 048#FF80000037FE03FF
(1572541999.607703) can0 088#FF0E29165000FFFF
(1572541999.608637) can0 0C8#F6C08F131D960000
(1572541999.613302) can0 1A8#001135540E000000
(1572541999.617663) can0 0A8#FEF09185BF3F0000
(1572541999.618629) can0 268#EB08000004020800
(1572541999.621154) can0 2E8#98000000611BA47F
(1572541999.623129) can0 228#10A50181001BA47F
(1572541999.624612) can0 0C8#FEC08F131D960000
(1572541999.626102) can0 3B8#8000000000000000
(1572541999.627101) can0 448#0000FF0000000000
(1572541999.628044) can0 088#FF0F29166000FFFF
(1572541999.629042) can0 338#0000000000000000
(1572541999.630025) can0 50B#010200000B000000
(1572541999.631119) can0 50C#0F01000000000000
(1572541999.632083) can0 288#F000000000910091
(1572541999.634309) can0 50F#1111000000000000
(1572541999.637715) can0 511#1301000000000000
(1572541999.639275) can0 2C8#CB00000000007F7F
(1572541999.640523) can0 1C8#800002081F022011
(1572541999.641491) can0 028#7E0096FE00800000
(1572541999.642433) can0 0C8#FFC48F141D960000
(1572541999.643409) can0 068#7C004027BCD04204
(1572541999.644328) can0 108#DD64635101900000
(1572541999.645286) can0 168#B88003E16A0083FF
(1572541999.646213) can0 188#289191961BA47F00
(1572541999.647164) can0 1D8#50000000CA052753
(1572541999.648125) can0 088#FF1029167000FFFF
(1572541999.649111) can0 308#F000000000050000
(1572541999.650062) can0 348#784062007E340000
(1572541999.651005) can0 368#DDC8D7B220500000
(1572541999.651970) can0 208#C0020820810829A9
(1572541999.652898) can0 388#8647C88C001BA47F
(1572541999.653876) can0 1A8#001135540E000000
(1572541999.654838) can0 398#33270C1600000000
(1572541999.655815) can0 248#00807BE1803D2E00
(1572541999.656773) can0 3C8#C029CC1000000000
(1572541999.657700) can0 0C8#FECC8F141D960000
(1572541999.658682) can0 128#C000000000003F3F
(1572541999.659664) can0 513#0101000000000000
(1572541999.663114) can0 228#10A50181001BA47F
(1572541999.666038) can0 048#FE00000037FE03FF
(1572541999.667716) can0 088#FF1229169000FFFF
(1572541999.668650) can0 0A8#FEF09185BF3F0000
(1572541999.669618) can0 268#EB08000004020800
(1572541999.670586) can0 2A8#C000000001287000
(1572541999.672616) can0 0C8#FECC8F151D960000
(1572541999.687706) can0 088#FF100619A000FFFF
(1572541999.688656) can0 028#7E0096FE00800000
(1572541999.689583) can0 0C8#F6CC8F161D960000
(1572541999.690518) can0 108#DD64638C01900000
(1572541999.691469) can0 168#B88003E26A0083FF
(1572541999.692420) can0 1D8#50000000CA052753
(1572541999.693408) can0 068#7C00402ABCD04204
(1572541999.694363) can0 1A8#001135540E000000
(1572541999.695264) can0 388#8647C88C001BA47F
(1572541999.696249) can0 308#F000000000050000
(1572541999.697239) can0 328#E000000000000000
(1572541999.698206) can0 398#33270C1600000000
(1572541999.699309) can0 2C8#CB00000000007F7F
(1572541999.701060) can0 2E8#98000000611BA47F
(1572541999.702976) can0 228#10A50181001BA47F
(1572541999.704624) can0 0C8#FECC8F161D960000
(1572541999.705591) can0 1C8#800002081F022011
(1572541999.706569) can0 208#C0020820810829A9
(1572541999.707541) can0 396#0000000000008209
(1572541999.708503) can0 088#FF110619B000FFFF
(1572541999.709483) can0 397#0000000000000409
(1572541999.715540) can0 248#00807BE1803D2E00
(1572541999.716536) can0 3B8#8000000000000000
(1572541999.717550) can0 448#0000FF0000000000
(1572541999.718492) can0 0A8#FEF09185BF3F0000
(1572541999.719459) can0 268#EB08000004020800
(1572541999.720390) can0 368#DDC8D7B220500000
(1572541999.721331) can0 0C8#FECC8F171D960000
(1572541999.722502) can0 1E8#0000000000000000
(1572541999.725432) can0 048#FE000000376A03FF
(1572541999.727717) can0 088#FF130619D000FFFF
(1572541999.732428) can0 128#C000000000003F3F
(1572541999.733417) can0 1A8#001135540E000000
(1572541999.736348) can0 028#7E0096FE00800000
(1572541999.737282) can0 0C8#FECC8F181D960000
(1572541999.738224) can0 108#DF6463C701900000
(1572541999.739184) can0 168#B88003E16A0083FF
(1572541999.740111) can0 188#289191961BA47F00
(1572541999.741068) can0 1D8#50000000CA052754
(1572541999.742013) can0 348#684062007E340000
(1572541999.742955) can0 388#8647C88C001BA47F
(1572541999.743893) can0 068#FC00402BBCD04204
(1572541999.744841) can0 228#10A50181001BA47F
(1572541999.745822) can0 398#33270C1600000000
(1572541999.746804) can0 308#F000000000050000
(1572541999.747764) can0 088#FF140619E000FFFF
(1572541999.748717) can0 3C8#C029CC1000000000
(1572541999.752396) can0 0C8#FFCC8F181D960000
(1572541999.753414) can0 501#0302000000000000
(1572541999.759274) can0 2C8#CB00000000007F7F
(1572541999.761089) can0 208#C0020820810829A9
(1572541999.767713) can0 088#FF0606190000FFFF
(1572541999.768654) can0 0A8#FEF09185BF3F0000
(1572541999.769582) can0 0C8#F6CC8F191D960000
(1572541999.770549) can0 268#EB08000004020800
(1572541999.771516) can0 1C8#800002081F022011
(1572541999.772483) can0 2A8#C000000001287000
(1572541999.773487) can0 1A8#001135540E000000
(1572541999.774445) can0 1E8#3400000000000000
(1572541999.775868) can0 248#00807BE1803D2E00
(1572541999.777394) can0 338#0000000000000000
(1572541999.780958) can0 2E8#98000000611BA47F
(1572541999.783085) can0 228#10A50181001BA47F
(1572541999.784081) can0 400#1600000000000004
(1572541999.785060) can0 028#7E0096FE00800000
(1572541999.786017) can0 048#FE000000376A03FF
(1572541999.786945) can0 0C8#FECC8F191D960000
(1572541999.787911) can0 088#FF0806192000FFFF
(1572541999.788853) can0 108#DD6463B801900000
(1572541999.789811) can0 168#B88003E16A0083FF
(1572541999.790762) can0 1D8#D0000000CA052754
(1572541999.791676) can0 388#F647C88C001BA47F
(1572541999.792612) can0 405#023735002B02C3A6
(1572541999.793564) can0 068#FC00402BBCD04204
(1572541999.794541) can0 288#F000000000910091
(1572541999.795472) can0 368#DD88D7B220500000
(1572541999.796469) can0 308#F00000000005001D
(1572541999.797422) can0 398#33270C1600000000
(1572541999.798413) can0 401#1600000000000000
(1572541999.799411) can0 402#1600000000000004
(1572541999.800345) can0 404#023735002B02C3A6
(1572541999.801272) can0 0C8#FECC8F1A1D960000
(1572541999.806107) can0 3B8#8000000000000000
(1572541999.807120) can0 448#0000FF0000000000
(1572541999.808064) can0 088#FF0906193000FFFF
(1572541999.809062) can0 128#C000000000003F3F
(1572541999.810030) can0 396#0000000000008209
(1572541999.811022) can0 397#0000000000000409
(1572541999.813332) can0 1A8#001135560E000000
(1572541999.816070) can0 208#C0020820810829A9
(1572541999.817009) can0 0C8#FECC8F1A1D960000
(1572541999.817939) can0 0A8#FEF09185BF3F0000
(1572541999.818922) can0 268#EB08000004020800
(1572541999.819890) can0 2C8#CB00000000007F7F
(1572541999.822733) can0 1E8#3400000000000000
(1572541999.823671) can0 228#10A50181001BA47F
(1572541999.827740) can0 088#FF0A06194000FFFF
(1572541999.832620) can0 028#7E0096FE00800000
(1572541999.833550) can0 0C8#FECC8F1B1D960000
(1572541999.834482) can0 108#DD64638401900000
(1572541999.835456) can0 168#B88003E16A0083FF
(1572541999.836367) can0 188#789191961BA47F00
(1572541999.837320) can0 1C8#800002081F022011
(1572541999.838263) can0 1D8#50000000CA052755
(1572541999.839232) can0 248#00807BE1803D2E00
(1572541999.840188) can0 348#784062027E340000
(1572541999.841114) can0 388#8647C88C001BA47F
(1572541999.842068) can0 3C8#C029CC1000000000
(1572541999.843355) can0 068#FC00402BBCD04204
(1572541999.844307) can0 398#33270B1600000000
(1572541999.845530) can0 048#FE001000376A03FF
(1572541999.846527) can0 308#F00000000005001D
(1572541999.847517) can0 328#E000000000000000
(1572541999.848484) can0 088#FF0C06196000FFFF
(1572541999.849412) can0 0C8#F7CC8F1B1D960000
(1572541999.853349) can0 1A8#001135560E000000
(1572541999.854327) can0 488#80FFFFFFFFFFFFFF
(1572541999.856180) can0 503#0402000000000000
(1572541999.860879) can0 2E8#D8000000611BA47F
(1572541999.863014) can0 228#10E50181001BA47F
(1572541999.864590) can0 0C8#FECC8F1C1D960000
(1572541999.867741) can0 088#FF0D06197001FFFF
(1572541999.868684) can0 0A8#FEF09185BF3F0000
(1572541999.869651) can0 268#EB08000004020800
(1572541999.870632) can0 2A8#C000000001287000
(1572541999.871598) can0 208#C0020820810829A9
(1572541999.872541) can0 368#DDC8D7B220500000
(1572541999.873523) can0 1E8#3400000000000000
(1572541999.879251) can0 2C8#CB00000000007F7F
(1572541999.880648) can0 028#7E0096FE00800000
(1572541999.881575) can0 0C8#FECC8F1D1D960000
(1572541999.882516) can0 108#DD64637601900000
(1572541999.883502) can0 128#C000000000003F3F
(1572541999.884458) can0 168#B88003E16A0083FF
(1572541999.885401) can0 1D8#50000000CA052755
(1572541999.886328) can0 388#8647C88C001BA47F
(1572541999.887734) can0 088#FF0E06198001FFFF
(1572541999.893311) can0 068#FC00402BBCD04204
(1572541999.894271) can0 1A8#0011355B0E000000
(1572541999.895232) can0 398#33270A1600000000
(1572541999.896181) can0 248#00807BE1803D2E00
(1572541999.897106) can0 0C8#FECC8F1D1D960000
(1572541999.898090) can0 308#F00000000005001D
(1572541999.899089) can0 3B8#8000000000000000
(1572541999.900089) can0 448#0000FF0000000000
(1572541999.901056) can0 1C8#800002081F022011
(1572541999.903014) can0 228#10A50181001BA47F
(1572541999.905754) can0 048#FF801000376A03FF
(1572541999.907246) can0 397#0000000000000409
(1572541999.908196) can0 088#FF100619A001FFFF
(1572541999.909180) can0 396#0000000000008209
(1572541999.912538) can0 0C8#FECC8F1E1D960000
(1572541999.917716) can0 0A8#FEF09185BF3F0000
(1572541999.918716) can0 268#EB08000004020800
(1572541999.922947) can0 1E8#3400000000000000
(1572541999.926067) can0 208#C0020820810829A9
(1572541999.927641) can0 338#0000000000000000
(1572541999.928607) can0 028#7E0096FE00800000
(1572541999.929558) can0 088#FF110619B001FFFF
(1572541999.930477) can0 0C8#F6CC8F1E1D960000
(1572541999.931428) can0 108#DF01637201900000
(1572541999.932387) can0 168#B88003E16A0083FF
(1572541999.933314) can0 188#289191961BA47F00
(1572541999.934274) can0 1A8#0011355B0E000000
(1572541999.935224) can0 1D8#50000000CA052756
(1572541999.936167) can0 348#684062027E340000
(1572541999.937094) can0 388#8647C88C001BA47F
(1572541999.938061) can0 3C8#C029CC1000000000
(1572541999.939308) can0 2C8#CB00000000007F7F
(1572541999.940738) can0 2E8#98000000611BA47F
(1572541999.943120) can0 228#10A50181001BA47F
(1572541999.944072) can0 068#FC00402BBCD04204
(1572541999.945022) can0 0C8#FFCC8F1F1D960000
(1572541999.946005) can0 308#F00000000005001D
(1572541999.946950) can0 368#DDC8D7B220500000
(1572541999.947900) can0 088#FF120619C001FFFF
(1572541999.948852) can0 398#33270A1600000000
(1572541999.956029) can0 248#00807BE1803D2E00
(1572541999.957447) can0 128#C000000000003F3F
(1572541999.958412) can0 288#F000000000910091
(1572541999.960347) can0 0C8#FECC8F1F1D960000
(1572541999.965414) can0 048#FE001000376A03FF
(1572541999.966378) can0 1C8#800002081F022011
(1572541999.967753) can0 088#FF140619E001FFFF
(1572541999.968696) can0 0A8#FEF09185BF3F0000
(1572541999.969663) can0 268#EB08000004020800
(1572541999.970630) can0 2A8#C000000001287000
(1572541999.971629) can0 504#0502000000000000
(1572541999.973072) can0 1E8#3400000000000000
(1572541999.974042) can0 1A8#002D355E0E000000
(1572541999.976606) can0 028#7E0096FE00800000
(1572541999.977541) can0 0C8#FECC8F201D960000
(1572541999.978484) can0 108#DD01636901900000
(1572541999.979443) can0 168#B88003E16A0083FF
(1572541999.980394) can0 1D8#50000000CA052756
(1572541999.981361) can0 208#C0020820810829A9
(1572541999.982288) can0 388#8647C88C001BA47F
(1572541999.983239) can0 228#10A50181001BA47F
(1572541999.986114) can0 3B8#8000000000000000
(1572541999.987109) can0 448#0000FF0000000000
(1572541999.988076) can0 088#FF0606190001FFFF
(1572541999.992572) can0 0C8#FECC8F201D960000
(1572541999.993527) can0 068#FC00402BBCD04204
(1572541999.994475) can0 398#33270A1600000000
(1572541999.996175) can0 308#F00000000005001D
(1572541999.997155) can0 328#E000000000000000
(1572541999.999297) can0 2C8#CB00000000007F7F
(1572542000.007070) can0 397#0000000000000409
(1572542000.008023) can0 088#FF0706191001FFFF
(1572542000.008943) can0 0C8#F6CC8F211D960000
(1572542000.009927) can0 396#0000000000008209
(1572542000.013358) can0 1A8#002D355E0E000000
(1572542000.016112) can0 248#00807BE1803D2E00
(1572542000.017727) can0 0A8#FEF09185BF3F0000
(1572542000.018694) can0 268#EB08000004020800
(1572542000.019637) can0 368#DDC8D7B220500000
(1572542000.020779) can0 2E8#98000000611BA47F
(1572542000.023001) can0 228#10A50181001BA47F
(1572542000.023999) can0 1E8#3400000000000000
(1572542000.024962) can0 028#7E0096FE00800000
(1572542000.025929) can0 048#FE001000376A03FF
(1572542000.026856) can0 0C8#FECC8F211D960000
(1572542000.027807) can0 088#FF0906193001FFFF
(1572542000.028750) can0 108#DD01637201900000
(1572542000.029712) can0 168#B88003E16A0083FF
(1572542000.030637) can0 188#289191961BA47F00
(1572542000.031604) can0 1C8#800002081F022011
(1572542000.032586) can0 128#C000000000003F3F
(1572542000.033533) can0 1D8#50000000CA052757
(1572542000.034480) can0 348#784062027E340000
(1572542000.035408) can0 388#8647C88C001BA47F
(1572542000.036374) can0 208#C0020820810829A9
(1572542000.037340) can0 3C8#C029CC1000000000
(1572542000.038340) can0 400#1702000200000000
(1572542000.039339) can0 405#2000000000000000
(1572542000.040555) can0 0C8#FFCC8F221D960000
(1572542000.043401) can0 068#FC00402BBCD04204
(1572542000.044314) can0 398#33270A1600000000
(1572542000.045281) can0 401#170029000000A000
(1572542000.046264) can0 308#F00000000005001D
(1572542000.047272) can0 402#1702000200000000
(1572542000.048231) can0 088#FF0A06194001FFFF
(1572542000.049238) can0 404#2000000000000000
(1572542000.053334) can0 1A8#002D35600E000000
(1572542000.056678) can0 0C8#FECC8F221D960000
(1572542000.059260) can0 2C8#CB00000000007F7F
(1572542000.062977) can0 228#10A50181001BA47F
(1572542000.067754) can0 088#FF0B06195001FFFF
(1572542000.068696) can0 0A8#FEF09185BF3F0000
(1572542000.069664) can0 268#EB08000004020800
(1572542000.070631) can0 2A8#C000000001287000
(1572542000.072608) can0 028#7E0096FE00800000
(1572542000.073537) can0 0C8#FECC8F231D960000
(1572542000.074477) can0 108#DD01636D01900000
(1572542000.075435) can0 168#B88003E16A0083FF
(1572542000.076379) can0 1D8#50000000CA052757
(1572542000.077372) can0 1E8#3400000000000000
(1572542000.078331) can0 248#00807BE1803D2E00
(1572542000.079329) can0 338#0000000000000000
(1572542000.080257) can0 388#8647C88C001BA47F
(1572542000.081256) can0 3B8#8000000000000000
(1572542000.082263) can0 448#0000FF0000000000
(1572542000.083247) can0 505#0802000000000000
(1572542000.085840) can0 048#FE001000376A03FF
(1572542000.087747) can0 088#FF0D06197001FFFF
(1572542000.088675) can0 0C8#F6CC8F231D960000
(1572542000.091114) can0 208#C0020820810829A9
(1572542000.093355) can0 068#FC00402BBCD04204
(1572542000.094315) can0 1A8#002D35600E000000
(1572542000.095256) can0 368#DDC8D7B220500000
(1572542000.096251) can0 308#F00000000005001D
(1572542000.097208) can0 1C8#800002081F022011
(1572542000.098166) can0 398#3327091600000000
(1572542000.100642) can0 2E8#98000000611BA47F
(1572542000.102960) can0 228#10A50181001BA47F
(1572542000.104675) can0 0C8#FECC8F241D960000
(1572542000.107255) can0 397#0000000000000409
(1572542000.108206) can0 088#FF0E06198001FFFF
(1572542000.109189) can0 128#C000000000003F3F
(1572542000.110172) can0 396#0000000000008209
(1572542000.117734) can0 0A8#FEF09185BF3F0000
(1572542000.118699) can0 268#EB08000004020800
(1572542000.119664) can0 288#F000000000910091
(1572542000.120631) can0 028#7E0096FE00800000
(1572542000.121557) can0 0C8#FECC8F251D960000
(1572542000.122507) can0 108#DF01636901900000
(1572542000.123471) can0 168#B88003E16A0083FF
(1572542000.124375) can0 188#689191961BA47F00
(1572542000.125333) can0 1D8#50000000CA052758
(1572542000.126326) can0 1E8#3400000000000000
(1572542000.127308) can0 2C8#CB00000000007F7F
(1572542000.128267) can0 088#FF0F06199001FFFF
(1572542000.129219) can0 348#784062027E340000
(1572542000.130146) can0 388#8647C88C001BA47F
(1572542000.131113) can0 3C8#C029CC1000000000
(1572542000.133411) can0 1A8#002D35600E000000
(1572542000.134377) can0 488#80FFFFFFFFFFFFFF
(1572542000.136327) can0 0C8#FECC8F261D960000
(1572542000.137287) can0 248#00807BE1803D2E00
(1572542000.142924) can0 228#10E50181001BA47F
(1572542000.143879) can0 068#FC00402BBCD04204
(1572542000.144835) can0 398#3327091600000000
(1572542000.145906) can0 048#FE001000376A03FF
(1572542000.146873) can0 208#C0020820810829A9
(1572542000.147822) can0 088#FF110619B001FFFF
(1572542000.148805) can0 308#F00000000005001D
(1572542000.149796) can0 328#E000000000000000
(1572542000.152436) can0 0C8#FFCC8F271D960000
(1572542000.161489) can0 1C8#800002081F022011
(1572542000.166097) can0 3B8#8000000000000000
(1572542000.167095) can0 448#0000FF0000000000
(1572542000.168045) can0 088#FF120619C001FFFF
(1572542000.169012) can0 028#7E0096FE00800000
(1572542000.169963) can0 0A8#FEF09185BF3F0000
(1572542000.170876) can0 0C8#F6CC8F271D960000
(1572542000.171825) can0 108#DD01636C01900000
(1572542000.172792) can0 168#B88803E16A0083FF
(1572542000.173747) can0 1A8#002D35610E000000
(1572542000.174702) can0 1D8#50000000CA052758
(1572542000.175695) can0 1E8#3400000000000000
(1572542000.176661) can0 268#EB08000004020800
(1572542000.177627) can0 2A8#C000000001287000
(1572542000.178573) can0 368#DDC8D7B220500000
(1572542000.179553) can0 2C8#CB00000000007F7F
(1572542000.180480) can0 388#8647C88C001BA47F
(1572542000.181422) can0 2E8#98000000611BA47F
(1572542000.182422) can0 128#C000000000003F3F
(1572542000.183407) can0 228#10A50181001BA47F
(1572542000.184531) can0 0C8#FECC8F271D960000
(1572542000.187771) can0 088#FF130619D001FFFF
(1572542000.193407) can0 068#FC00402BBCD04204
(1572542000.194339) can0 398#3327091600000000
(1572542000.195985) can0 308#F00000000005001D
(1572542000.196947) can0 248#00807BE1803D2E00
(1572542000.197945) can0 508#0B02000000000000
(1572542000.200616) can0 0C8#FECC8F281D960000
(1572542000.201583) can0 208#C0020820810829A9
(1572542000.205623) can0 048#FF801000376A03FF
(1572542000.207141) can0 397#0000000000000409
(1572542000.208108) can0 088#FF0606190001FFFF
(1572542000.209092) can0 396#0000000000008209
(1572542000.213406) can0 1A8#002D35610E000000
(1572542000.216613) can0 028#7E0096FE00800000
(1572542000.217547) can0 0C8#FECC8F291D960000
(1572542000.218490) can0 0A8#FEF09185BF3F0000
(1572542000.219432) can0 108#DD01636301900000
(1572542000.220399) can0 168#B88803E16A0083FF
(1572542000.221324) can0 188#289191961BA47F00
(1572542000.222267) can0 1D8#50000000CA052759
(1572542000.223219) can0 228#10A50181001BA47F
(1572542000.224215) can0 1E8#3400000000000000
(1572542000.225178) can0 268#EB08000004020800
(1572542000.226129) can0 348#784062017E340000
(1572542000.227096) can0 1C8#800002081F022011
(1572542000.228054) can0 088#FF0706191001FFFF
(1572542000.229053) can0 338#0000000000000000
(1572542000.230028) can0 378#0000000000130928
(1572542000.230955) can0 388#8647C88C001BA47F
(1572542000.231922) can0 3C8#C029CC1000000000
(1572542000.232857) can0 0C8#FECC8F291D960000
(1572542000.239274) can0 2C8#CB00000000007F7F
(1572542000.243344) can0 068#FC00402BBCD04204
(1572542000.244287) can0 368#DDC8D7B220500000
(1572542000.245255) can0 398#3327081600000000
(1572542000.246238) can0 308#F00000000005001D
(1572542000.247773) can0 088#FF0806192001FFFF
(1572542000.248715) can0 0C8#F7CC8F291D960000
(1572542000.253408) can0 1A8#002D35630F000000
(1572542000.256075) can0 208#C0020820810829A9
(1572542000.257035) can0 248#00807BE1803D2E00
(1572542000.258017) can0 128#C000000000003F3F
(1572542000.259016) can0 3B8#8000000000000000
(1572542000.260016) can0 448#0000FF0000000000
(1572542000.260957) can0 2E8#98000000611BA47F
(1572542000.262908) can0 228#10A50181001BA47F
(1572542000.264572) can0 028#7E0096FE00800000
(1572542000.265498) can0 0C8#FECC8F2A1D960000
(1572542000.266465) can0 048#FE001000376A03FF
(1572542000.267408) can0 108#DD01635B01900000
(1572542000.268367) can0 088#FF0A06194001FFFF
(1572542000.269310) can0 0A8#FEF09185BF3F0000
(1572542000.270277) can0 168#B88803E16A0083FF
(1572542000.271220) can0 1D8#50000000CA052759
(1572542000.272186) can0 268#EB08000004020800
(1572542000.273154) can0 2A8#C000000001287000
(1572542000.274150) can0 1E8#3400000000000000
(1572542000.275074) can0 388#8647C88C001BA47F
(1572542000.280553) can0 0C8#FECC8F2A1D960000
(1572542000.282532) can0 288#F000000000910091
(1572542000.283542) can0 400#1800000000010000
(1572542000.284530) can0 405#2100000000000000
(1572542000.287785) can0 088#FF0B06195001FFFF
(1572542000.291708) can0 1C8#800002081F022011
(1572542000.293410) can0 068#FC00402BBCD04204
(1572542000.294338) can0 1A8#002D35630F000000
(1572542000.295305) can0 398#3327081600000000
(1572542000.296288) can0 308#F00000000005001D
(1572542000.297226) can0 0C8#FECC8F2B1D960000
(1572542000.298208) can0 328#E000000000000000
(1572542000.299206) can0 401#1800000000180000
(1572542000.300189) can0 2C8#CB00000000007F7F
(1572542000.301180) can0 402#1800000000010000
(1572542000.302188) can0 404#2100000000000000
(1572542000.303138) can0 228#10A50181001BA47F
(1572542000.304125) can0 50B#0C02000000000000
(1572542000.307296) can0 397#0000000000000409
(1572542000.308247) can0 088#FF0C06196001FFFF
(1572542000.309230) can0 396#0000000000008209
(1572542000.311101) can0 208#C0020820810829A9
(1572542000.312388) can0 028#7E0096FE00800000
(1572542000.313315) can0 0C8#FECC8F2B1D960000
(1572542000.314267) can0 108#DD01636C01900000
(1572542000.315233) can0 168#B88803E16A0083FF
(1572542000.316160) can0 188#289191961BA47F00
(1572542000.317103) can0 1D8#50000000CA05275A
(1572542000.318045) can0 0A8#FEF09185BF3F0000
(1572542000.319005) can0 248#00807BE1803D2E00
(1572542000.319972) can0 268#EB08000004020800
(1572542000.320923) can0 348#784062017E340000
(1572542000.321867) can0 368#DDC8D7B220500000
(1572542000.322793) can0 388#8647C88C001BA47F
(1572542000.323773) can0 3C8#C029CC1000000000
(1572542000.324755) can0 1E8#3400000000000000
(1572542000.325721) can0 048#FE001000376A03FF
(1572542000.327801) can0 088#FF0E06198001FFFF
(1572542000.328727) can0 0C8#F6CC8F2B1D960000
(1572542000.332422) can0 128#C000000000003F3F
(1572542000.333449) can0 1A8#002D35630F000000
(1572542000.340405) can0 2E8#D8000000611BA47F
(1572542000.342891) can0 228#10A50181001BA47F
(1572542000.343846) can0 068#FC00402BBCD04204
(1572542000.344786) can0 0C8#FFCC8F2C1D960000
(1572542000.345769) can0 308#F00000000005001D
(1572542000.346735) can0 398#3327081600000000
(1572542000.347735) can0 3B8#8000000000000000
(1572542000.348693) can0 088#FF0F06199001FFFF
(1572542000.349691) can0 448#0000FF0000000000
(1572542000.356889) can0 1C8#800002081F022011
(1572542000.357895) can0 4D8#0000000000000000
(1572542000.359333) can0 2C8#CB00000000007F7F
(1572542000.360556) can0 028#7E0096FE00800000
(1572542000.361499) can0 0C8#FECC8F2C1D960000
(1572542000.362466) can0 108#DF00636701900000
(1572542000.363465) can0 168#B88803E16A0083FF
(1572542000.364377) can0 1D8#50000000CA05275A
(1572542000.365303) can0 388#8647C88C001BA47F
(1572542000.366270) can0 208#C0020820810829A9
(1572542000.367797) can0 088#FF100619A001FFFF
(1572542000.368740) can0 0A8#FEF09185BF3F0000
(1572542000.369707) can0 268#EB08000004020800
(1572542000.370674) can0 2A8#C000000001287000
(1572542000.373433) can0 1A8#002D35630F000000
(1572542000.374395) can0 1E8#3400000000000000
(1572542000.376642) can0 0C8#FECC8F2D1D960000
(1572542000.377602) can0 248#00807BE1803D2E00
(1572542000.378601) can0 338#0000000000000000
(1572542000.382848) can0 228#10A50181001BA47F
(1572542000.385586) can0 048#FE001000376A03FF
(1572542000.387798) can0 088#FF120619C001FFFF
(1572542000.392557) can0 0C8#FECC8F2D1D960000
(1572542000.393512) can0 068#FC00402BBCD04204
(1572542000.394452) can0 368#DD88D7B220500000
(1572542000.395419) can0 398#3327081600000000
(1572542000.396402) can0 308#F00000000005001D
(1572542000.407103) can0 397#0000000000000409
(1572542000.408049) can0 088#FF130619D001FFFF
(1572542000.409015) can0 028#7E0096FE00800000
(1572542000.409942) can0 0C8#F6CC8F2D1D960000
(1572542000.410885) can0 108#DD00636101900000
(1572542000.411867) can0 128#C000000000003F3F
(1572542000.412834) can0 168#B88803E16A0083FF
(1572542000.413748) can0 188#689191961BA47F00
(1572542000.414703) can0 1A8#002D35640F000000
(1572542000.415646) can0 1D8#50000000CA05275B
(1572542000.416598) can0 348#784062017E340000
(1572542000.417525) can0 388#8647C88C001BA47F
(1572542000.418467) can0 0A8#FEF09185BF3F0000
(1572542000.419434) can0 268#EB08000004020800
(1572542000.420416) can0 2C8#CB00000000007F7F
(1572542000.421382) can0 208#C0020820810829A9
(1572542000.422350) can0 1C8#800002081F022011
(1572542000.423299) can0 228#10A50181001BA47F
(1572542000.424293) can0 1E8#3400000000000000
(1572542000.425218) can0 0C8#FECC8F2D1D960000
(1572542000.426161) can0 2E8#98000000611BA47F
(1572542000.427145) can0 396#0000000000008209
(1572542000.428103) can0 088#FF140619E001FFFF
(1572542000.429070) can0 3C8#C029CC1000000000
(1572542000.430062) can0 488#80FFFFFFFFFFFFFF
(1572542000.431052) can0 50C#0F02000000000000
(1572542000.436105) can0 3B8#8000000000000000
(1572542000.437059) can0 248#00807BE1803D2E00
(1572542000.438058) can0 448#0000FF0000000000
(1572542000.440548) can0 0C8#FFCC8F2E1D960000
(1572542000.442967) can0 288#F000000000910091
(1572542000.443917) can0 068#FC00402BBDD04204
(1572542000.444882) can0 398#3327081600000000
(1572542000.445849) can0 048#FE001000376A03FF
(1572542000.446832) can0 308#F00000000005001D
(1572542000.447830) can0 328#E000000000000000
(1572542000.448783) can0 088#FF0706191001FFFF
(1572542000.453442) can0 1A8#002D35640F000000
(1572542000.456601) can0 028#7E0096FE00800000
(1572542000.457527) can0 0C8#FECC8F2F1D960000
(1572542000.458478) can0 108#DD00636201900000
(1572542000.459445) can0 168#B88803E16A0083FF
(1572542000.460387) can0 1D8#50000000CA05275B
(1572542000.461315) can0 388#8647C88C001BA47F
(1572542000.462897) can0 228#10E50181001BA47F
(1572542000.467805) can0 088#FF0806192001FFFF
(1572542000.468754) can0 0A8#FEF09185BF3F0000
(1572542000.469719) can0 268#EB08000004020800
(1572542000.470679) can0 2A8#C000000001287000
(1572542000.471626) can0 368#DDC8D7B220500000
(1572542000.472930) can0 0C8#FECC8F2F1D960000
(1572542000.474215) can0 1E8#3400000000000000
(1572542000.476097) can0 208#C0020820810829A9
(1572542000.479315) can0 2C8#CB00000000007F7F
(1572542000.482432) can0 128#C000000000003F3F
(1572542000.487072) can0 1C8#800002081F022011
(1572542000.488014) can0 088#FF0906193001FFFF
(1572542000.488948) can0 0C8#F6CC8F301D960000
(1572542000.493490) can0 068#FC00402BBDD04204
(1572542000.494404) can0 1A8#002D35640F000000
(1572542000.495372) can0 398#3327071600000000
(1572542000.496354) can0 308#F00000000005001D
(1572542000.497314) can0 248#00807BE1803D2E00
(1572542000.500231) can0 2E8#98000000611BA47F
(1572542000.502853) can0 228#10A50181001BA47F
(1572542000.504389) can0 028#7E0096FE00800000
(1572542000.505323) can0 0C8#FECC8F301D960000
(1572542000.506290) can0 048#FF801000376A03FF
(1572542000.507240) can0 108#DD00634B01900000
(1572542000.508191) can0 088#FF0B06195001FFFF
(1572542000.509158) can0 168#B88803E16A0083FF
(1572542000.510085) can0 188#289191961BA47F00
(1572542000.511029) can0 1D8#50000000CA05275C
(1572542000.511972) can0 348#784062057E340000
(1572542000.512899) can0 388#8647C88C001BA47F
(1572542000.513883) can0 396#0000000000008209
(1572542000.514874) can0 397#0000000000000409
(1572542000.515840) can0 3C8#C029CC1000000000
(1572542000.517799) can0 0A8#FEF09185BF3F0000
(1572542000.518766) can0 268#EB08000004020800
(1572542000.520366) can0 0C8#FECC8F311D960000
(1572542000.524319) can0 1E8#3400000000000000
(1572542000.526117) can0 3B8#8000000000000000
(1572542000.527117) can0 448#0000FF0000000000
(1572542000.528075) can0 088#FF0C06196001FFFF
(1572542000.529076) can0 338#0000000000000000
(1572542000.531089) can0 208#C0020820810829A9
(1572542000.533471) can0 1A8#002D35640F000000
(1572542000.534399) can0 400#1900000202010202
(1572542000.535325) can0 405#0166CA05275C4204
(1572542000.536317) can0 50F#1112000000000000
(1572542000.537252) can0 0C8#FFCC8F311D960000
(1572542000.539355) can0 2C8#CB00000000007F7F
(1572542000.542825) can0 228#10A50181001BA47F
(1572542000.543785) can0 068#FC00402BBDD04204
(1572542000.544728) can0 368#DDC8D7B220500000
(1572542000.545695) can0 398#3327071600000000
(1572542000.546671) can0 308#F00000008005001D
(1572542000.547654) can0 401#1900FF000F020079
(1572542000.548604) can0 088#FF0D06197001FFFF
(1572542000.549572) can0 402#1900000202010202
(1572542000.550507) can0 404#0166CA05275C4204
(1572542000.552172) can0 1C8#800002081F022011
(1572542000.553139) can0 028#7E0096FE00800000
(1572542000.554083) can0 0C8#FECC8F311D960000
(1572542000.555027) can0 108#DF03635201900000
(1572542000.555993) can0 168#B88803E16A0083FF
(1572542000.556936) can0 1D8#50000000CA05275C
(1572542000.557918) can0 128#C000000000003F3F
(1572542000.558878) can0 248#00807BE1803D2E00
(1572542000.559805) can0 388#8647C88C001BA47F
(1572542000.566030) can0 048#FE001000376A03FF
(1572542000.567820) can0 088#FF0F06199001FFFF
(1572542000.568762) can0 0A8#FEF09185BF3F0000
(1572542000.569688) can0 0C8#F6CC8F311D960000
(1572542000.570656) can0 268#EB08000004020800
(1572542000.571624) can0 2A8#C000000001287000
(1572542000.573468) can0 1A8#002D35640F000000
(1572542000.574456) can0 1E8#3400000000000000
(1572542000.580145) can0 2E8#98000000611BA47F
(1572542000.582792) can0 228#10A50181001BA47F
(1572542000.584602) can0 0C8#FECC8F321D960000
(1572542000.586094) can0 208#C0020820810829A9
(1572542000.587839) can0 088#FF100619A001FFFF
(1572542000.593551) can0 068#FC00402BBDD04204
(1572542000.594423) can0 398#3327071600000000
(1572542000.596148) can0 308#F00000008005001D
(1572542000.597139) can0 328#E000000000000000
(1572542000.599331) can0 2C8#CB00000000007F7F
(1572542000.600728) can0 028#7E0096FE00800000
(1572542000.601655) can0 0C8#FECC8F321D960000
(1572542000.602598) can0 108#DD03634D01900000
(1572542000.603570) can0 168#B88803E16A0083FF
(1572542000.604492) can0 188#289191961BA47F00
(1572542000.605434) can0 1D8#50000000CA05275C
(1572542000.606399) can0 288#F000000000910091
(1572542000.607342) can0 348#784062057E340000
(1572542000.608294) can0 088#FF110619B001FFFF
(1572542000.609221) can0 388#8647C88C001BA47F
(1572542000.610204) can0 396#0000000000008209
(1572542000.611195) can0 397#0000000000000409
(1572542000.612162) can0 3C8#C029CC1000000000
(1572542000.613508) can0 1A8#002D356510000000
(1572542000.616120) can0 3B8#8000000000000000
(1572542000.617055) can0 0C8#FECC8F331D960000
(1572542000.617998) can0 0A8#FEF09185BF3F0000
(1572542000.618965) can0 1C8#800002081F022011
(1572542000.619925) can0 248#00807BE1803D2E00
(1572542000.620891) can0 268#EB08000004020800
(1572542000.621833) can0 368#DDC8D7B220500000
(1572542000.622832) can0 448#0000FF0000000000
(1572542000.623786) can0 228#10A50181001BA47F
(1572542000.624777) can0 1E8#3400000000000000
(1572542000.626176) can0 048#FE001000376A03FF
(1572542000.627854) can0 088#FF130619D001FFFF
(1572542000.632414) can0 128#C000000000003F3F
(1572542000.633340) can0 0C8#FECC87331D960000
(1572542000.641100) can0 208#C0020820810829A9
(1572542000.643461) can0 068#FC00402BBDD04204
(1572542000.644388) can0 398#3327071600000000
(1572542000.646314) can0 308#F00000008005001D
(1572542000.647826) can0 088#FF140619E001FFFF
(1572542000.648801) can0 511#1302000000000000
(1572542000.649768) can0 028#7E0096FE00800000
(1572542000.650703) can0 0C8#F7CC87341D960000
(1572542000.651654) can0 108#DD03634801900000
(1572542000.652605) can0 168#B88903E16A0083FF
(1572542000.653568) can0 1A8#002D356510000000
(1572542000.654516) can0 1D8#50000000CA05275D
(1572542000.655443) can0 388#8647C88C001BA47F
(1572542000.659290) can0 2C8#CB00000000007F7F
(1572542000.660232) can0 2E8#98000000611BA47F
(1572542000.662790) can0 228#10A50181001BA47F
(1572542000.664334) can0 0C8#FECC87341D960000
(1572542000.667853) can0 088#FF0606190001FFFF
(1572542000.668796) can0 0A8#FEF09185BF3F0000
(1572542000.669764) can0 268#EB08000004020800
(1572542000.670730) can0 2A8#C000000001287000
(1572542000.674669) can0 1E8#3400000000000000
(1572542000.677531) can0 248#00807BE1803D2E00
(1572542000.678530) can0 338#0000000000000000
(1572542000.680329) can0 0C8#FECC87341D960000
(1572542000.682442) can0 1C8#800002081F022011
(1572542000.685757) can0 048#FE001000376A03FF
(1572542000.687856) can0 088#FF0806192001FFFF
(1572542000.693477) can0 068#FC00402BBDD04204
(1572542000.694423) can0 1A8#002D356610000000
(1572542000.695367) can0 368#DDC8D7B220500000
(1572542000.696332) can0 208#C0020820810829A9
(1572542000.697299) can0 028#7E0096FE00800000
(1572542000.698234) can0 0C8#FECC87341D960000
(1572542000.699178) can0 108#DD03634301900000
(1572542000.700128) can0 168#B88903E16A0083FF
(1572542000.701039) can0 188#689191961BA47F00
(1572542000.701989) can0 1D8#50000000CA05275D
(1572542000.702939) can0 228#10A50181001BA47F
(1572542000.703917) can0 308#F00000008005001D
(1572542000.704865) can0 348#784062087E340000
(1572542000.705791) can0 388#8647C88C001BA47F
(1572542000.706758) can0 398#3327071600000000
(1572542000.707741) can0 128#C000000000003F3F
(1572542000.708692) can0 088#FF0906193001FFFF
(1572542000.709667) can0 396#0000000000008214
(1572542000.710658) can0 397#0000000000000414
(1572542000.711655) can0 3B8#8000000000000000
(1572542000.712622) can0 3C8#C029CC1000000000
(1572542000.713560) can0 0C8#FECC87341D960000
(1572542000.714554) can0 448#0000FF0000000000
(1572542000.715545) can0 488#80FFFFFFFFFFFFFF
(1572542000.717849) can0 0A8#FEF09185BF3F0000
(1572542000.718824) can0 268#EB08000004020800
(1572542000.719800) can0 2C8#CB00000000007F7F
(1572542000.724781) can0 1E8#3400000000000000
(1572542000.727849) can0 088#FF0A06194001FFFF
(1572542000.728784) can0 0C8#F6CC87351D960000
(1572542000.733484) can0 1A8#002D356610000000
(1572542000.737538) can0 248#00807BE1803D2E00
(1572542000.739975) can0 2E8#98000000611BA47F
(1572542000.742605) can0 228#10E50181001BA47F
(1572542000.743568) can0 068#FC00402CBDD04204
(1572542000.744540) can0 398#3327061600000000
(1572542000.745507) can0 028#7E0096FE00800000
(1572542000.746474) can0 048#FE001000376A03FF
(1572542000.747408) can0 0C8#FFCC87351D960000
(1572542000.748359) can0 088#FF0C06196001FFFF
(1572542000.749318) can0 108#DF06634101900000
(1572542000.750267) can0 168#B88903E16A0083FF
(1572542000.751235) can0 1C8#800002081F022011
(1572542000.752178) can0 1D8#D0000000CA05275E
(1572542000.753144) can0 208#C0020820810829A9
(1572542000.754122) can0 308#F00000008005001D
(1572542000.755109) can0 328#E000000000000000
(1572542000.756036) can0 388#F647C88C001BA47F
(1572542000.760652) can0 0C8#FECC87351D960000
(1572542000.763519) can0 513#0102000000000000
(1572542000.764481) can0 288#F000000000910091
(1572542000.767848) can0 088#FF0D06197001FFFF
(1572542000.768791) can0 0A8#FEF09185BF3F0000
(1572542000.769759) can0 268#EB08000004020800
(1572542000.770726) can0 2A8#C000000001287000
(1572542000.771669) can0 368#DDC8D7B220500000
(1572542000.773496) can0 1A8#002D356610030000
(1572542000.774886) can0 1E8#3400000000000000
(1572542000.776717) can0 0C8#FECC87351D960000
(1572542000.779308) can0 2C8#CB00000000007F7F
(1572542000.782404) can0 128#C000000000003F3F
(1572542000.783354) can0 228#10A50181001BA47F
(1572542000.784355) can0 400#1A00010000000000
(1572542000.785281) can0 405#023735002C02C3A6
(1572542000.787849) can0 088#FF0E06198001FFFF
(1572542000.792648) can0 028#7E0096FE00800000
(1572542000.793612) can0 068#FC00402CBDD04204
(1572542000.794535) can0 0C8#FECC87351D960000
(1572542000.795477) can0 108#DD06633601900000
(1572542000.796429) can0 168#B88903E16A0083FF
(1572542000.797356) can0 188#389191961BA47F00
(1572542000.798299) can0 1D8#50000000CA05275E
(1572542000.799259) can0 248#00807BE1803D2E00
(1572542000.800233) can0 308#F00000008005001D
(1572542000.801175) can0 348#784062077E340000
(1572542000.802101) can0 388#8647C88C001BA47F
(1572542000.803076) can0 398#3327061600000000
(1572542000.804078) can0 3B8#8000000000000000
(1572542000.805050) can0 3C8#C029CC1000000000
(1572542000.806010) can0 048#FF801000376A03FF
(1572542000.806975) can0 208#C0020820810829A9
(1572542000.807926) can0 088#FF100619A001FFFF
(1572542000.808861) can0 0C8#F6CC87351D960000
(1572542000.809836) can0 396#0000000000008214
(1572542000.810827) can0 397#0000000000000414
(1572542000.811779) can0 401#1A01009511FFAA03
(1572542000.812770) can0 402#1A00010000000000
(1572542000.813725) can0 1A8#002D356610030000
(1572542000.814689) can0 1C8#800002081F022011
(1572542000.815623) can0 404#023735002C02C3A6
(1572542000.816622) can0 448#0000FF0000000000
(1572542000.817870) can0 0A8#FEF09185BF3F0000
(1572542000.818837) can0 268#EB08000004020800
(1572542000.819908) can0 2E8#98000000611BA47F
(1572542000.822761) can0 228#10A50181001BA47F
(1572542000.824908) can0 0C8#FECC87361D960000
(1572542000.825905) can0 1E8#3600000000000000
(1572542000.827865) can0 088#FF110619B001FFFF
(1572542000.828864) can0 338#0000000000000000
(1572542000.839315) can0 2C8#CB00000000007F7F
(1572542000.840591) can0 028#7E0096FE00800000
(1572542000.841542) can0 0C8#FFCC87361D960000
(1572542000.842484) can0 108#DD06633701900000
(1572542000.843475) can0 168#B88903E16A0083FF
(1572542000.844395) can0 068#FC00402CBDD04204
(1572542000.845346) can0 1D8#50000000CA05275F
(1572542000.846321) can0 308#F00000008005001D
(1572542000.847265) can0 368#DDC8D7B220500000
(1572542000.848215) can0 088#FF120619C001FFFF
(1572542000.849142) can0 388#8647C88C001BA47F
(1572542000.850117) can0 398#3327061600000000
(1572542000.853496) can0 1A8#002D356711080000
(1572542000.856453) can0 0C8#FECC87361D960000
(1572542000.857435) can0 128#C000000000003F3F
(1572542000.858394) can0 248#00807BE1803D2E00
(1572542000.861098) can0 208#C0020820810829A9
(1572542000.862793) can0 228#10A50181001BA47F
(1572542000.865836) can0 048#FE001000376A03FF
(1572542000.867872) can0 088#FF140619E001FFFF
(1572542000.868815) can0 0A8#FEF09185BF3F0000
(1572542000.869782) can0 268#EB08000004020800
(1572542000.870750) can0 2A8#C000000001287000
(1572542000.872389) can0 0C8#FECC87361D960000
(1572542000.873411) can0 501#0302000000000000
(1572542000.875127) can0 1E8#3600000000000000
(1572542000.878048) can0 1C8#800002081F022011
(1572542000.886104) can0 3B8#8000000000000000
(1572542000.887102) can0 448#0000FF0000000000
(1572542000.888069) can0 088#FF0606190001FFFF
(1572542000.889036) can0 028#7E0096FE00800000
(1572542000.889955) can0 0C8#F6CC87361D960000
(1572542000.890914) can0 108#DD06633F01900000
(1572542000.891858) can0 168#B88903E16A0083FF
(1572542000.892784) can0 188#289191961BA47F00
(1572542000.893747) can0 068#FC00402CBDD04204
(1572542000.894679) can0 1A8#002D356711080000
(1572542000.895629) can0 1D8#50000000CA05275F
(1572542000.896572) can0 348#7840620D7E340000
(1572542000.897547) can0 308#F00000008005001D
(1572542000.898548) can0 328#E000000000000000
(1572542000.899521) can0 2C8#CB00000000007F7F
(1572542000.900470) can0 2E8#D8000000611BA47F
(1572542000.901396) can0 388#8647C88C001BA47F
(1572542000.902372) can0 398#3327061600000000
(1572542000.903322) can0 228#10A50181001BA47F
(1572542000.904290) can0 3C8#C029CC1000000000
(1572542000.905233) can0 0C8#FECC87371D960000
(1572542000.907288) can0 397#0000000000000414
(1572542000.908262) can0 088#FF0706191001FFFF
(1572542000.909237) can0 396#0000000000008214
(1572542000.916070) can0 208#C0020820810829A9
(1572542000.917844) can0 0A8#FEF09185BF3F0000
(1572542000.918803) can0 248#00807BE1803D2E00
(1572542000.919770) can0 268#EB08000004020800
(1572542000.920698) can0 0C8#FECC87371D960000
(1572542000.921641) can0 368#DD88D7B220500000
(1572542000.925245) can0 1E8#3600000000000000
(1572542000.926208) can0 048#FE001000376A03FF
(1572542000.927173) can0 288#F000000000910091
(1572542000.928124) can0 088#FF0906193001FFFF
(1572542000.932412) can0 128#C000000000003F3F
(1572542000.933503) can0 1A8#002D3567110D0000
(1572542000.936642) can0 028#7E0096FE00800000
(1572542000.937569) can0 0C8#FECC87371D960000
(1572542000.938520) can0 108#DF08633901900000
(1572542000.939471) can0 168#B88903E16A0083FF
(1572542000.940430) can0 1D8#50000000CA052760
(1572542000.941358) can0 388#8647C88C001BA47F
(1572542000.942780) can0 228#10A50181001BA47F
(1572542000.943740) can0 068#FC00402CBDD04204
(1572542000.944707) can0 1C8#800002081F022011
(1572542000.945666) can0 398#3327051600000000
(1572542000.946641) can0 308#F00000008005001D
(1572542000.947913) can0 088#FF0A06194001FFFF
(1572542000.952712) can0 0C8#FFCC87371D960000
(1572542000.959323) can0 2C8#CB00000000007F7F
(1572542000.967872) can0 088#FF0B06195001FFFF
(1572542000.968814) can0 0A8#FEF09185BF3F0000
(1572542000.969749) can0 0C8#F6CC87371D960000
(1572542000.970750) can0 268#EB08000004020800
(1572542000.971683) can0 208#C0020820810829A9
(1572542000.972648) can0 2A8#C000000001287000
(1572542000.973588) can0 1A8#002D3567110D0000
(1572542000.974576) can0 488#80FFFFFFFFFFFFFF
(1572542000.975577) can0 1E8#3600000000000000
(1572542000.976576) can0 3B8#8000000000000000
(1572542000.977575) can0 448#0000FF0000000000
(1572542000.978534) can0 248#00807BE1803D2E00
(1572542000.979532) can0 338#0000000000000000
(1572542000.980475) can0 2E8#98000000611BA47F
(1572542000.981465) can0 503#0402000000000000
(1572542000.982703) can0 228#10A50181001BA47F
(1572542000.984634) can0 028#7E0096FE00800000
(1572542000.985558) can0 0C8#FECC87371D960000
(1572542000.986524) can0 048#FE001000376A03FF
(1572542000.987458) can0 108#DD08634A01900000
(1572542000.988409) can0 088#FF0D06197001FFFF
(1572542000.989360) can0 168#B88903E16A0083FF
(1572542000.990271) can0 188#689191961BA47F00
(1572542000.991229) can0 1D8#50000000CA052760
(1572542000.992180) can0 348#7840620F7E340000
(1572542000.993108) can0 388#8647C88C001BA47F
(1572542000.994070) can0 068#FC00402CBDD04204
(1572542000.995010) can0 368#DDC8D7B220500000
(1572542000.995970) can0 398#3327051600000000
(1572542000.996945) can0 308#F00000008005001D
(1572542000.997912) can0 3C8#C029CC1000000000
(1572542001.000911) can0 0C8#FECC87371D960000
(1572542001.007176) can0 397#0000000000000414
(1572542001.008126) can0 088#FF0E06198001FFFF
(1572542001.009109) can0 128#C000000000003F3F
(1572542001.010077) can0 1C8#800002081F022011
(1572542001.011051) can0 396#0000000000008214
(1572542001.013497) can0 1A8#002D3567110D0000
(1572542001.016691) can0 0C8#FECC87371D960000
(1572542001.017883) can0 0A8#FEF09185BF3F0000
(1572542001.018849) can0 268#EB08000004020800
(1572542001.019834) can0 2C8#CB00000000007F7F
(1572542001.022688) can0 228#10A50181001BA47F
(1572542001.025482) can0 1E8#3600000000000000
(1572542001.026446) can0 208#C0020820810829A9
(1572542001.027877) can0 088#FF0F06199001FFFF
(1572542001.032644) can0 028#7E0096FE00800000
(1572542001.033583) can0 0C8#FECC87361D960000
(1572542001.034522) can0 108#DD08634C01900000
(1572542001.035472) can0 168#B88903E16A0083FF
(1572542001.036424) can0 1D8#50000000CA052761
(1572542001.037351) can0 388#8647C88C001BA47F
(1572542001.038310) can0 248#00807BE1803D2E00
(1572542001.039294) can0 400#1B00000102020100
(1572542001.040293) can0 405#2200000000000000
(1572542001.043504) can0 068#FC00402CBDD04204
(1572542001.044460) can0 398#3327051600000000
(1572542001.045443) can0 401#1B1F405600000000
(1572542001.046419) can0 048#FE001000376A03FF
(1572542001.047387) can0 308#F00000008005001D
(1572542001.048337) can0 088#FF110619B001FFFF
(1572542001.049264) can0 0C8#F7CC87351D960000
(1572542001.050256) can0 328#E000000000000000
(1572542001.051231) can0 402#1B00000102020100
(1572542001.052230) can0 404#2200000000000000
(1572542001.053537) can0 1A8#002D3567110D0000
(1572542001.059647) can0 2E8#98000000611BA47F
(1572542001.062508) can0 228#10E50181001BA47F
(1572542001.064398) can0 0C8#FECC87341D960000
(1572542001.066129) can0 3B8#8000000000000000
(1572542001.067128) can0 448#0000FF0000000000
(1572542001.068078) can0 088#FF120619C001FFFF
(1572542001.069022) can0 0A8#FEF09185BF3F0000
(1572542001.069990) can0 268#EB08000004020800
(1572542001.070957) can0 2A8#C000000001287000
(1572542001.071901) can0 368#DDC8D7B220500000
(1572542001.073405) can0 1C8#800002081F022011
(1572542001.075586) can0 1E8#3600000000000000
(1572542001.079320) can0 2C8#C300000000007F7F
(1572542001.080423) can0 028#7E0096FE00800000
(1572542001.081349) can0 0C8#FECC87331D960000
(1572542001.082291) can0 108#DD08633E01900000
(1572542001.083273) can0 128#C000000000003F3F
(1572542001.084227) can0 168#B88903E16A0083FF
(1572542001.085149) can0 188#289191961BA47F00
(1572542001.086100) can0 1D8#50000000CA052761
(1572542001.087067) can0 208#C0020820810829A9
(1572542001.088017) can0 088#FF130619D001FFFF
(1572542001.088960) can0 348#784062127E340000
(1572542001.089887) can0 388#8647C88C001BA47F
(1572542001.090854) can0 3C8#C029CC1000000000
(1572542001.091819) can0 288#F000000000910091
(1572542001.092802) can0 504#0502000B04000000
(1572542001.093764) can0 068#FC00402CBDD04204
(1572542001.094704) can0 1A8#002D356811110000
(1572542001.095664) can0 398#3327051600000000
(1572542001.096686) can0 0C8#FECC87321D960000
(1572542001.097662) can0 308#F00000008005001D
(1572542001.098622) can0 248#00807BE1803D2E00
(1572542001.102652) can0 228#10A50181001BA47F
(1572542001.106200) can0 048#FF801000376A03FF
(1572542001.107267) can0 397#0000000000000414
(1572542001.108234) can0 088#FF0606190001FFFF
(1572542001.109210) can0 396#0000000000008214
(1572542001.112697) can0 0C8#FECC87311D960000
(1572542001.117898) can0 0A8#FEF09185BF3F0000
(1572542001.118864) can0 268#EB08000004020800
(1572542001.125707) can0 1E8#3600000000000000
(1572542001.127895) can0 088#FF0706191001FFFF
(1572542001.128862) can0 028#7E0096FE00800000
(1572542001.129789) can0 0C8#F6CC87301D960000
(1572542001.130790) can0 108#DF0B634001900000
(1572542001.131708) can0 168#B88903E16A0083FF
(1572542001.132650) can0 1D8#50000000CA052762
(1572542001.133649) can0 338#0000000000000000
(1572542001.134591) can0 1A8#002D356811110000
(1572542001.135519) can0 388#8647C88C001BA47F
(1572542001.136486) can0 208#C0020820810829A9
(1572542001.138446) can0 1C8#800002081F022011
(1572542001.139429) can0 2C8#CB00000000007F7F
(1572542001.140372) can0 2E8#98000000611BA47F
(1572542001.142658) can0 228#10A50181001BA47F
(1572542001.143621) can0 068#FC00402CBDD04204
(1572542001.144561) can0 368#DDC8D7B220500000
(1572542001.145504) can0 0C8#FFCC872F1D960000
(1572542001.146479) can0 308#F00000008005001D
(1572542001.147438) can0 398#3327051600000000
(1572542001.148389) can0 088#FF0806192001FFFF
(1572542001.156199) can0 3B8#8000000000000000
(1572542001.157144) can0 448#0000FF0000000000
(1572542001.158117) can0 128#C000000000003F3F
(1572542001.159066) can0 248#00807BE1803D2E00
(1572542001.160568) can0 0C8#FECC872E1D960000
(1572542001.165979) can0 048#FE001000376A03FF
(1572542001.167962) can0 088#FF0A06194001FFFF
(1572542001.168865) can0 0A8#FEF09185BF3F0000
(1572542001.169832) can0 268#EB08000004020800
(1572542001.170797) can0 2A8#C000000001287000
(1572542001.173570) can0 1A8#002D356811110000
(1572542001.175825) can0 1E8#3600000000000000
(1572542001.176944) can0 028#7E0096FE00800000
(1572542001.177885) can0 0C8#FECC872D1D960000
(1572542001.178834) can0 108#DD0B634201900000
(1572542001.179771) can0 168#B88903E16A0083FF
(1572542001.180692) can0 188#289191961BA47F00
(1572542001.181636) can0 1D8#50000000CA052762
(1572542001.182569) can0 348#784062137E340000
(1572542001.183526) can0 228#10A50181001BA47F
(1572542001.184506) can0 378#0000000000130929
(1572542001.185431) can0 388#8647C88C001BA47F
(1572542001.186387) can0 3C8#C029CC1000000000
(1572542001.187923) can0 088#FF0B06195001FFFF
(1572542001.191123) can0 208#C0020820810829A9
(1572542001.192627) can0 0C8#FECC872D1D960000
(1572542001.193587) can0 068#FC00402CBDD04204
(1572542001.194546) can0 398#3327051600000000
(1572542001.196640) can0 308#F00000008005001D
(1572542001.197641) can0 328#E000000000000000
(1572542001.199360) can0 2C8#CA00000000007F7F
(1572542001.203454) can0 1C8#800002081F022011
(1572542001.204583) can0 505#0802000B05000000
(1572542001.207142) can0 397#0000000000000414
(1572542001.208092) can0 088#FF0C06196001FFFF
(1572542001.209020) can0 0C8#F6CC872C1D960000
(1572542001.209995) can0 396#0000000000008214
(1572542001.213555) can0 1A8#002D356811150000
(1572542001.217885) can0 0A8#FEF09185BF3F0000
(1572542001.218842) can0 248#00807BE1803D2E00
(1572542001.219810) can0 268#EB08000004020800
(1572542001.220752) can0 2E8#98000000611BA47F
(1572542001.221695) can0 368#DDC8D7B220500000
(1572542001.222646) can0 228#10A50181001BA47F
(1572542001.224647) can0 028#7E0096FE00800000
(1572542001.225582) can0 0C8#FECC872B1D960000
(1572542001.226548) can0 048#FE001000376A03FF
(1572542001.227495) can0 108#DD0B633701900000
(1572542001.228444) can0 088#FF0E06198001FFFF
(1572542001.229394) can0 168#B88903E16A0083FF
(1572542001.230327) can0 1D8#50000000CA052763
(1572542001.231328) can0 1E8#3600000000000000
(1572542001.232254) can0 388#8647C88C001BA47F
(1572542001.233237) can0 128#C000000000003F3F
(1572542001.240396) can0 0C8#FFCC872A1D960000
(1572542001.243549) can0 068#FC00402CBDD04204
(1572542001.244507) can0 398#3327051600000000
(1572542001.246106) can0 208#C0020820810829A9
(1572542001.247082) can0 308#F00000008005001D
(1572542001.248040) can0 088#FF0F06199001FFFF
(1572542001.249039) can0 3B8#8000000000000000
(1572542001.250038) can0 448#0000FF0000000000
(1572542001.252177) can0 288#F000000000910091
(1572542001.253538) can0 1A8#002D356811150000
(1572542001.254527) can0 488#80FFFFFFFFFFFFFF
(1572542001.256438) can0 0C8#FECC872A1D960000
(1572542001.259333) can0 2C8#CB00000000007F7F
(1572542001.262579) can0 228#10A50181001BA47F
(1572542001.267909) can0 088#FF100619A001FFFF
(1572542001.268853) can0 0A8#FEF09185BF3F0000
(1572542001.269819) can0 1C8#800002081F022011
(1572542001.270786) can0 268#EB08000004020800
(1572542001.271753) can0 2A8#C000000001287000
(1572542001.272722) can0 028#7E0096FE00800000
(1572542001.273657) can0 0C8#FECC87291D960000
(1572542001.274595) can0 108#DD0B633901900000
(1572542001.275543) can0 168#B88903E16A0083FF
(1572542001.276454) can0 188#689191961BA47F00
(1572542001.277397) can0 1D8#50000000CA052763
(1572542001.278397) can0 1E8#3600000000000000
(1572542001.279356) can0 248#00807BE1803D2E00
(1572542001.280355) can0 338#0000000000000000
(1572542001.281290) can0 348#784062137E340000
(1572542001.282224) can0 388#8647C88C001BA47F
(1572542001.283184) can0 3C8#C029CC1000000000
(1572542001.284185) can0 400#1C00010000020000
(1572542001.285183) can0 405#2300000000000000
(1572542001.286150) can0 048#FE001000376A03FF
(1572542001.287926) can0 088#FF120619C001FFFF
(1572542001.288853) can0 0C8#F6CC87291D960000
(1572542001.293578) can0 068#FC00402CBDD04204
(1572542001.294519) can0 1A8#002D356812190000
(1572542001.295462) can0 368#DDC8D7B220500000
(1572542001.296421) can0 398#3327051600000000
(1572542001.297399) can0 308#F00000008005001D
(1572542001.298357) can0 401#1C000086030E0000
(1572542001.299348) can0 402#1C00010000020000
(1572542001.300290) can0 2E8#98000000611BA47F
(1572542001.301258) can0 208#C0020820810829A9
(1572542001.302257) can0 404#2300000000000000
(1572542001.303208) can0 228#10A50181001BA47F
(1572542001.304737) can0 0C8#FECC87281D960000
(1572542001.307422) can0 128#C000000000003F3F
(1572542001.308371) can0 088#FF130619D001FFFF
(1572542001.309347) can0 396#0000000000008214
(1572542001.310338) can0 397#0000000000000414
(1572542001.311321) can0 508#0B02880008000000
(1572542001.317899) can0 0A8#FEF09185BF3F0000
(1572542001.318865) can0 268#EB08000004020800
(1572542001.319848) can0 2C8#CB00000000007F7F
(1572542001.320817) can0 028#7E0096FE00800000
(1572542001.321751) can0 0C8#FECC87281D960000
(1572542001.322701) can0 108#DF0C634201900000
(1572542001.323654) can0 168#B88903E16A0083FF
(1572542001.324595) can0 1D8#50000000CA052764
(1572542001.325522) can0 388#8647C88C001BA47F
(1572542001.326524) can0 1E8#3600000000000000
(1572542001.327955) can0 088#FF140619E001FFFF
(1572542001.333552) can0 1A8#002D356812190000
(1572542001.334516) can0 1C8#800002081F022011
(1572542001.336130) can0 3B8#8000000000000000
(1572542001.337073) can0 0C8#FFCC87281D960000
(1572542001.338072) can0 448#0000FF0000000000
(1572542001.339032) can0 248#00807BE1803D2E00
(1572542001.342549) can0 228#10E50181001BA47F
(1572542001.343569) can0 068#FC00402CBDD04204
(1572542001.344525) can0 398#3327051600000000
(1572542001.346420) can0 048#FE001000376A03FF
(1572542001.347395) can0 308#F00000008005001D
(1572542001.348354) can0 088#FF0706191001FFFF
(1572542001.349346) can0 328#E000000000000000
(1572542001.352977) can0 0C8#FECC87271D960000
(1572542001.356109) can0 208#C0020820810829A9
(1572542001.367915) can0 088#FF0806192001FFFF
(1572542001.368880) can0 028#7E0096FE00800000
(1572542001.369831) can0 0A8#FEF09185BF3F0000
(1572542001.370742) can0 0C8#F6CC87271D960000
(1572542001.371693) can0 108#DD0C633801900000
(1572542001.372644) can0 168#B88903E16A0083FF
(1572542001.373574) can0 188#289191961BA47F00
(1572542001.374506) can0 1A8#002D3569121C0000
(1572542001.375448) can0 1D8#50000000CA052764
(1572542001.376449) can0 1E8#3600000000000000
(1572542001.377417) can0 268#EB08000004020800
(1572542001.378383) can0 2A8#C000000001287000
(1572542001.379317) can0 348#784062157E340000
(1572542001.380300) can0 2C8#CB00000000007F7F
(1572542001.381249) can0 2E8#D8000000611BA47F
(1572542001.382192) can0 368#DDC8D7B220500000
(1572542001.383177) can0 128#C000000000003F3F
(1572542001.384128) can0 228#10A50181001BA47F
(1572542001.385051) can0 0C8#FECC87261D960000
(1572542001.385978) can0 388#8647C88C001BA47F
(1572542001.386945) can0 3C8#C029CC1000000000
(1572542001.387976) can0 088#FF0906193001FFFF
(1572542001.393570) can0 068#FC00402CBDD04204
(1572542001.394537) can0 398#3327041600000000
(1572542001.396479) can0 308#F00000008005001D
(1572542001.398800) can0 1C8#800002081F022011
(1572542001.399760) can0 248#00807BE1803D2E00
(1572542001.400778) can0 4D8#0000000000000000
(1572542001.401695) can0 0C8#FECC87261D960000
(1572542001.406087) can0 048#FF801000376A03FF
(1572542001.407134) can0 397#0000000000000414
(1572542001.408084) can0 088#FF0B06195001FFFF
(1572542001.409059) can0 396#0000000000008214
(1572542001.411130) can0 208#C0020820810829A9
(1572542001.413558) can0 1A8#002D3569121C0000
(1572542001.414520) can0 288#F000000000910091
(1572542001.416494) can0 028#7E0096FE00800000
(1572542001.417421) can0 0C8#FECC87261D960000
(1572542001.418363) can0 0A8#FEF09185BF3F0000
(1572542001.419298) can0 108#DD0C633B01900000
(1572542001.420247) can0 168#B88903E16A0083FF
(1572542001.421198) can0 1D8#50000000CA052765
(1572542001.422165) can0 268#EB08000004020800
(1572542001.423116) can0 228#10A50181001BA47F
(1572542001.424045) can0 388#8647C88C001BA47F
(1572542001.425025) can0 50B#0C1200000B000000
(1572542001.426168) can0 3B8#8000000000000000
(1572542001.427170) can0 1E8#3600000000000000
(1572542001.428120) can0 088#FF0C06196001FFFF
(1572542001.429119) can0 448#0000FF0000000000
(1572542001.430119) can0 338#0000000000000000
(1572542001.432430) can0 0C8#FECC87261D960000
(1572542001.439352) can0 2C8#CB00000000007F7F
(1572542001.443560) can0 068#FC00402CBDD04204
(1572542001.444502) can0 368#DDC8D7B220500000
(1572542001.445469) can0 398#3327041600000000
(1572542001.446445) can0 308#F00000008005001D
(1572542001.447948) can0 088#FF0D06197001FFFF
(1572542001.448868) can0 0C8#F7CC87261D960000
(1572542001.453601) can0 1A8#002D356912200000
(1572542001.457411) can0 128#C000000000003F3F
(1572542001.458900) can0 248#00807BE1803D2E00
(1572542001.459842) can0 2E8#98000000611BA47F
(1572542001.462536) can0 228#10A50181001BA47F
(1572542001.463956) can0 1C8#800002081F022011
(1572542001.464920) can0 028#7E0096FE00800000
(1572542001.465846) can0 0C8#FECC87251D960000
(1572542001.466813) can0 048#FE001000376A03FF
(1572542001.467747) can0 108#DD0C634A01900000
(1572542001.468706) can0 088#FF0F06199001FFFF
(1572542001.469648) can0 0A8#FEF09185BF3F0000
(1572542001.470598) can0 168#B88903E16A0083FF
(1572542001.471525) can0 188#289191961BA47F00
(1572542001.472475) can0 1D8#50000000CA052765
(1572542001.473492) can0 208#C0020820810829A9
(1572542001.474410) can0 268#EB08000004020800
(1572542001.475374) can0 2A8#C000000001287000
(1572542001.476317) can0 348#7840621D7E340000
(1572542001.477319) can0 1E8#3600000000000000
(1572542001.478245) can0 388#8647C88C001BA47F
(1572542001.479212) can0 3C8#C029CC1000000000
(1572542001.480611) can0 0C8#FECC87251D960000
(1572542001.487934) can0 088#FF100619A001FFFF
(1572542001.493584) can0 068#FC00402CBDD04204
(1572542001.494524) can0 1A8#002D356912200000
(1572542001.495492) can0 398#3327041600000000
(1572542001.496683) can0 308#F00000008005001D
(1572542001.497610) can0 0C8#FECC87251D960000
(1572542001.498601) can0 328#E000000000000000
(1572542001.499584) can0 2C8#CB00000000007F7F
(1572542001.502544) can0 228#10A50181001BA47F
(1572542001.507792) can0 397#0000000000000414
(1572542001.508741) can0 088#FF110619B001FFFF
(1572542001.509717) can0 396#0000000000008214
(1572542001.512636) can0 028#7E0096FE00800000
(1572542001.513582) can0 0C8#FECC87241D960000
(1572542001.514529) can0 108#DD0C633F01900000
(1572542001.515481) can0 168#B88903E16A0083FF
(1572542001.516423) can0 1D8#50000000CA052766
(1572542001.517351) can0 388#8647C88C001BA47F
(1572542001.518293) can0 0A8#FEF09185BF3F0000
(1572542001.519252) can0 248#00807BE1803D2E00
(1572542001.520219) can0 268#EB08000004020800
(1572542001.521163) can0 368#DD88D7B220500000
(1572542001.522131) can0 208#C0020820810829A9
(1572542001.523129) can0 3B8#8000000000000000
(1572542001.524132) can0 448#0000FF0000000000
(1572542001.526232) can0 048#FE001000376A03FF
(1572542001.527234) can0 1E8#3600000000000000
(1572542001.528185) can0 088#FF130619D001FFFF
(1572542001.529122) can0 0C8#F6CC87241D960000
(1572542001.530081) can0 1C8#800002081F022011
(1572542001.531190) can0 50C#0F0200400C000000
(1572542001.532469) can0 128#C000000000003F3F
(1572542001.533617) can0 1A8#002D356913230000
(1572542001.534612) can0 400#1D00000000000000
(1572542001.535556) can0 405#0166CA0527664204
(1572542001.536547) can0 488#80FFFFFFFFFFFFFF
(1572542001.539199) can0 2E8#98000000611BA47F
(1572542001.542549) can0 228#10A50181001BA47F
